# 
#############################################################################
# Load simulation and add waves
##############################################################################
# 
# vsim -L work -t 1ns work.testbench -gNUM_THREADS=1 -wlf waves.wlf
# vsim -L work -t 1ns work.testbench -wlf waves.wlf -gNUM_THREADS=1 
# Start time: 10:00:31 on Sep 10,2019
# //  ModelSim Microsemi 10.7c Oct 15 2018
# //
# //  Copyright 1991-2018 Mentor Graphics Corporation
# //  All Rights Reserved.
# //
# //  ModelSim Microsemi and its associated documentation contain trade
# //  secrets and commercial or financial information that are the property of
# //  Mentor Graphics Corporation and are privileged, confidential,
# //  and exempt from disclosure under the Freedom of Information Act,
# //  5 U.S.C. Section 552. Furthermore, this information
# //  is prohibited from disclosure under the Trade Secrets Act,
# //  18 U.S.C. Section 1905.
# //
# Loading work.testbench
# Loading work.COREAXI4INTERCONNECT
# Loading work.caxi4interconnect_ResetSycnc
# Loading work.caxi4interconnect_Axi4CrossBar
# Loading work.Axi4SlaveGen
# Loading work.caxi4interconnect_FifoDualPort
# Loading work.caxi4interconnect_DualPort_RAM_SyncWr_ASyncRd
# ** Error (suppressible): (vsim-3584) C:/Users/Kpatel1/Desktop/Krupesh/microsemi/CoreAXI4Interconnect/trunk/sim/User_Test.v(1778): Module parameter 'ADDR_WIDTH_INT' not found for override.
#    Time: 0 ns  Iteration: 0  Instance: /testbench File: C:/Users/Kpatel1/Desktop/Krupesh/microsemi/CoreAXI4Interconnect/trunk/sim/User_Test.v
# Error loading design
# Error: Error loading design
#        Pausing macro execution
# MACRO ./run_user_test.do PAUSED at line 13
do run_user_test.do
# do filelist.do
# do rtl_filelist.do
## #####################################################################################
##  Microsemi Corporation Proprietary and Confidential
##  Copyright 2017 Microsemi Corporation.  All rights reserved.
##
## ANY USE OR REDISTRIBUTION IN PART OR IN WHOLE MUST BE HANDLED IN
## ACCORDANCE WITH THE MICROSEMI LICENSE AGREEMENT AND MUST BE APPROVED
## IN ADVANCE IN WRITING.
##
## Description: CoreAXI4Interconnect filelist
##
## Revision Information:
## Date     Description     This file contains all of the necessary file locations
## Feb17    Revision 1.0
##
## Notes:
## best viewed with tabstops set to "4"
#####################################################################################
# 
#quietly set PROJECT_DIR "C:/Users/Barry/Desktop/MicrosemiDispatch"
# quietly set PROJECT_DIR "C:/Users/Kpatel1/Desktop/Krupesh/microsemi/CoreAXI4Interconnect/trunk"
# 
#quietly set PROJECT_DIR "ENTER YOUR PROJECT PATH HERE"
# if {[file exists work/_info]} {
#    echo "INFO: Simulation library work already exists"
#    vlib work
# } else {
#    vlib work
# }
# INFO: Simulation library work already exists
# ** Warning: (vlib-34) Library already exists at "work".
# vmap work work
# Model Technology ModelSim Microsemi vmap 10.7c Lib Mapping Utility 2018.10 Oct 15 2018
# vmap work work 
# Modifying C:/Microsemi/Libero_SoC_v12.0/ModelSim/win32acoem/../modelsim.ini
# 
##############################################################################
# Parameter File
##############################################################################
#  
##############################################################################
# Compile CoreAxi4Interconnect
##############################################################################
# vlog -work work  "${PROJECT_DIR}/rtl/CoreAxi4Interconnect.v"
# Model Technology ModelSim Microsemi vlog 10.7c Compiler 2018.10 Oct 15 2018
# Start time: 10:01:06 on Sep 10,2019
# vlog -reportprogress 300 -work work C:/Users/Kpatel1/Desktop/Krupesh/microsemi/CoreAXI4Interconnect/trunk/rtl/CoreAxi4Interconnect.v 
# -- Compiling module COREAXI4INTERCONNECT
# 
# Top level modules:
# 	COREAXI4INTERCONNECT
# End time: 10:01:06 on Sep 10,2019, Elapsed time: 0:00:00
# Errors: 0, Warnings: 0
#vlog -work work  "${PROJECT_DIR}/rtl/CoreAxi4Interconnect_w.v"
# 
# 
# 
# vlog -work work  "${PROJECT_DIR}/rtl/Axi4CrossBar/AddressController.v"
# Model Technology ModelSim Microsemi vlog 10.7c Compiler 2018.10 Oct 15 2018
# Start time: 10:01:06 on Sep 10,2019
# vlog -reportprogress 300 -work work C:/Users/Kpatel1/Desktop/Krupesh/microsemi/CoreAXI4Interconnect/trunk/rtl/Axi4CrossBar/AddressController.v 
# -- Compiling module caxi4interconnect_AddressController
# 
# Top level modules:
# 	caxi4interconnect_AddressController
# End time: 10:01:06 on Sep 10,2019, Elapsed time: 0:00:00
# Errors: 0, Warnings: 0
# vlog -work work  "${PROJECT_DIR}/rtl/Axi4CrossBar/Axi4CrossBar.v"
# Model Technology ModelSim Microsemi vlog 10.7c Compiler 2018.10 Oct 15 2018
# Start time: 10:01:06 on Sep 10,2019
# vlog -reportprogress 300 -work work C:/Users/Kpatel1/Desktop/Krupesh/microsemi/CoreAXI4Interconnect/trunk/rtl/Axi4CrossBar/Axi4CrossBar.v 
# -- Compiling module caxi4interconnect_Axi4CrossBar
# 
# Top level modules:
# 	caxi4interconnect_Axi4CrossBar
# End time: 10:01:06 on Sep 10,2019, Elapsed time: 0:00:00
# Errors: 0, Warnings: 0
# vlog -work work  "${PROJECT_DIR}/rtl/Axi4CrossBar/BitScan0.v"
# Model Technology ModelSim Microsemi vlog 10.7c Compiler 2018.10 Oct 15 2018
# Start time: 10:01:06 on Sep 10,2019
# vlog -reportprogress 300 -work work C:/Users/Kpatel1/Desktop/Krupesh/microsemi/CoreAXI4Interconnect/trunk/rtl/Axi4CrossBar/BitScan0.v 
# -- Compiling module caxi4interconnect_BitScan0
# 
# Top level modules:
# 	caxi4interconnect_BitScan0
# End time: 10:01:06 on Sep 10,2019, Elapsed time: 0:00:00
# Errors: 0, Warnings: 0
# vlog -work work  "${PROJECT_DIR}/rtl/Axi4CrossBar/DependenceChecker.v"
# Model Technology ModelSim Microsemi vlog 10.7c Compiler 2018.10 Oct 15 2018
# Start time: 10:01:06 on Sep 10,2019
# vlog -reportprogress 300 -work work C:/Users/Kpatel1/Desktop/Krupesh/microsemi/CoreAXI4Interconnect/trunk/rtl/Axi4CrossBar/DependenceChecker.v 
# -- Compiling module caxi4interconnect_DependenceChecker
# 
# Top level modules:
# 	caxi4interconnect_DependenceChecker
# End time: 10:01:07 on Sep 10,2019, Elapsed time: 0:00:01
# Errors: 0, Warnings: 0
# vlog -work work  "${PROJECT_DIR}/rtl/Axi4CrossBar/DERR_Slave.v"
# Model Technology ModelSim Microsemi vlog 10.7c Compiler 2018.10 Oct 15 2018
# Start time: 10:01:07 on Sep 10,2019
# vlog -reportprogress 300 -work work C:/Users/Kpatel1/Desktop/Krupesh/microsemi/CoreAXI4Interconnect/trunk/rtl/Axi4CrossBar/DERR_Slave.v 
# -- Compiling module caxi4interconnect_DERR_Slave
# 
# Top level modules:
# 	caxi4interconnect_DERR_Slave
# End time: 10:01:07 on Sep 10,2019, Elapsed time: 0:00:00
# Errors: 0, Warnings: 0
# vlog -work work  "${PROJECT_DIR}/rtl/Axi4CrossBar/revision.v"
# Model Technology ModelSim Microsemi vlog 10.7c Compiler 2018.10 Oct 15 2018
# Start time: 10:01:07 on Sep 10,2019
# vlog -reportprogress 300 -work work C:/Users/Kpatel1/Desktop/Krupesh/microsemi/CoreAXI4Interconnect/trunk/rtl/Axi4CrossBar/revision.v 
# -- Compiling module caxi4interconnect_revision
# 
# Top level modules:
# 	caxi4interconnect_revision
# End time: 10:01:07 on Sep 10,2019, Elapsed time: 0:00:00
# Errors: 0, Warnings: 0
# vlog -work work  "${PROJECT_DIR}/rtl/Axi4CrossBar/DualPort_FF_SyncWr_SyncRd.v"
# Model Technology ModelSim Microsemi vlog 10.7c Compiler 2018.10 Oct 15 2018
# Start time: 10:01:07 on Sep 10,2019
# vlog -reportprogress 300 -work work C:/Users/Kpatel1/Desktop/Krupesh/microsemi/CoreAXI4Interconnect/trunk/rtl/Axi4CrossBar/DualPort_FF_SyncWr_SyncRd.v 
# -- Compiling module caxi4interconnect_DualPort_FF_SyncWr_SyncRd
# 
# Top level modules:
# 	caxi4interconnect_DualPort_FF_SyncWr_SyncRd
# End time: 10:01:07 on Sep 10,2019, Elapsed time: 0:00:00
# Errors: 0, Warnings: 0
# vlog -work work  "${PROJECT_DIR}/rtl/Axi4CrossBar/DualPort_Ram_SyncWr_SyncRd.v"
# Model Technology ModelSim Microsemi vlog 10.7c Compiler 2018.10 Oct 15 2018
# Start time: 10:01:07 on Sep 10,2019
# vlog -reportprogress 300 -work work C:/Users/Kpatel1/Desktop/Krupesh/microsemi/CoreAXI4Interconnect/trunk/rtl/Axi4CrossBar/DualPort_Ram_SyncWr_SyncRd.v 
# -- Compiling module caxi4interconnect_DualPort_RAM_SyncWr_SyncRd
# 
# Top level modules:
# 	caxi4interconnect_DualPort_RAM_SyncWr_SyncRd
# End time: 10:01:07 on Sep 10,2019, Elapsed time: 0:00:00
# Errors: 0, Warnings: 0
# vlog -work work  "${PROJECT_DIR}/rtl/Axi4CrossBar/FifoDualPort.v"
# Model Technology ModelSim Microsemi vlog 10.7c Compiler 2018.10 Oct 15 2018
# Start time: 10:01:07 on Sep 10,2019
# vlog -reportprogress 300 -work work C:/Users/Kpatel1/Desktop/Krupesh/microsemi/CoreAXI4Interconnect/trunk/rtl/Axi4CrossBar/FifoDualPort.v 
# -- Compiling module caxi4interconnect_FifoDualPort
# 
# Top level modules:
# 	caxi4interconnect_FifoDualPort
# End time: 10:01:08 on Sep 10,2019, Elapsed time: 0:00:01
# Errors: 0, Warnings: 0
# vlog -work work  "${PROJECT_DIR}/rtl/Axi4CrossBar/MasterAddressDecoder.v"
# Model Technology ModelSim Microsemi vlog 10.7c Compiler 2018.10 Oct 15 2018
# Start time: 10:01:08 on Sep 10,2019
# vlog -reportprogress 300 -work work C:/Users/Kpatel1/Desktop/Krupesh/microsemi/CoreAXI4Interconnect/trunk/rtl/Axi4CrossBar/MasterAddressDecoder.v 
# -- Compiling module caxi4interconnect_MasterAddressDecoder
# 
# Top level modules:
# 	caxi4interconnect_MasterAddressDecoder
# End time: 10:01:08 on Sep 10,2019, Elapsed time: 0:00:00
# Errors: 0, Warnings: 0
# vlog -work work  "${PROJECT_DIR}/rtl/Axi4CrossBar/MasterControl.v"
# Model Technology ModelSim Microsemi vlog 10.7c Compiler 2018.10 Oct 15 2018
# Start time: 10:01:08 on Sep 10,2019
# vlog -reportprogress 300 -work work C:/Users/Kpatel1/Desktop/Krupesh/microsemi/CoreAXI4Interconnect/trunk/rtl/Axi4CrossBar/MasterControl.v 
# -- Compiling module caxi4interconnect_MasterControl
# 
# Top level modules:
# 	caxi4interconnect_MasterControl
# End time: 10:01:08 on Sep 10,2019, Elapsed time: 0:00:00
# Errors: 0, Warnings: 0
# vlog -work work  "${PROJECT_DIR}/rtl/Axi4CrossBar/RDataController.v"
# Model Technology ModelSim Microsemi vlog 10.7c Compiler 2018.10 Oct 15 2018
# Start time: 10:01:08 on Sep 10,2019
# vlog -reportprogress 300 -work work C:/Users/Kpatel1/Desktop/Krupesh/microsemi/CoreAXI4Interconnect/trunk/rtl/Axi4CrossBar/RDataController.v 
# -- Compiling module caxi4interconnect_RDataController
# 
# Top level modules:
# 	caxi4interconnect_RDataController
# End time: 10:01:08 on Sep 10,2019, Elapsed time: 0:00:00
# Errors: 0, Warnings: 0
# vlog -work work  "${PROJECT_DIR}/rtl/Axi4CrossBar/ReadDataController.v"
# Model Technology ModelSim Microsemi vlog 10.7c Compiler 2018.10 Oct 15 2018
# Start time: 10:01:08 on Sep 10,2019
# vlog -reportprogress 300 -work work C:/Users/Kpatel1/Desktop/Krupesh/microsemi/CoreAXI4Interconnect/trunk/rtl/Axi4CrossBar/ReadDataController.v 
# -- Compiling module caxi4interconnect_ReadDataController
# 
# Top level modules:
# 	caxi4interconnect_ReadDataController
# End time: 10:01:08 on Sep 10,2019, Elapsed time: 0:00:00
# Errors: 0, Warnings: 0
# vlog -work work  "${PROJECT_DIR}/rtl/Axi4CrossBar/RdFifoDualPort.v"
# Model Technology ModelSim Microsemi vlog 10.7c Compiler 2018.10 Oct 15 2018
# Start time: 10:01:08 on Sep 10,2019
# vlog -reportprogress 300 -work work C:/Users/Kpatel1/Desktop/Krupesh/microsemi/CoreAXI4Interconnect/trunk/rtl/Axi4CrossBar/RdFifoDualPort.v 
# -- Compiling module caxi4interconnect_RdFifoDualPort
# 
# Top level modules:
# 	caxi4interconnect_RdFifoDualPort
# End time: 10:01:08 on Sep 10,2019, Elapsed time: 0:00:00
# Errors: 0, Warnings: 0
# vlog -work work  "${PROJECT_DIR}/rtl/Axi4CrossBar/ReadDataMux.v"
# Model Technology ModelSim Microsemi vlog 10.7c Compiler 2018.10 Oct 15 2018
# Start time: 10:01:08 on Sep 10,2019
# vlog -reportprogress 300 -work work C:/Users/Kpatel1/Desktop/Krupesh/microsemi/CoreAXI4Interconnect/trunk/rtl/Axi4CrossBar/ReadDataMux.v 
# -- Compiling module caxi4interconnect_ReadDataMux
# 
# Top level modules:
# 	caxi4interconnect_ReadDataMux
# End time: 10:01:08 on Sep 10,2019, Elapsed time: 0:00:00
# Errors: 0, Warnings: 0
# vlog -work work  "${PROJECT_DIR}/rtl/Axi4CrossBar/RequestQual.v"
# Model Technology ModelSim Microsemi vlog 10.7c Compiler 2018.10 Oct 15 2018
# Start time: 10:01:09 on Sep 10,2019
# vlog -reportprogress 300 -work work C:/Users/Kpatel1/Desktop/Krupesh/microsemi/CoreAXI4Interconnect/trunk/rtl/Axi4CrossBar/RequestQual.v 
# -- Compiling module caxi4interconnect_RequestQual
# 
# Top level modules:
# 	caxi4interconnect_RequestQual
# End time: 10:01:09 on Sep 10,2019, Elapsed time: 0:00:00
# Errors: 0, Warnings: 0
# vlog -work work  "${PROJECT_DIR}/rtl/Axi4CrossBar/ResetSycnc.v"
# Model Technology ModelSim Microsemi vlog 10.7c Compiler 2018.10 Oct 15 2018
# Start time: 10:01:09 on Sep 10,2019
# vlog -reportprogress 300 -work work C:/Users/Kpatel1/Desktop/Krupesh/microsemi/CoreAXI4Interconnect/trunk/rtl/Axi4CrossBar/ResetSycnc.v 
# -- Compiling module caxi4interconnect_ResetSycnc
# 
# Top level modules:
# 	caxi4interconnect_ResetSycnc
# End time: 10:01:09 on Sep 10,2019, Elapsed time: 0:00:00
# Errors: 0, Warnings: 0
# vlog -work work  "${PROJECT_DIR}/rtl/Axi4CrossBar/RespController.v"
# Model Technology ModelSim Microsemi vlog 10.7c Compiler 2018.10 Oct 15 2018
# Start time: 10:01:09 on Sep 10,2019
# vlog -reportprogress 300 -work work C:/Users/Kpatel1/Desktop/Krupesh/microsemi/CoreAXI4Interconnect/trunk/rtl/Axi4CrossBar/RespController.v 
# -- Compiling module caxi4interconnect_RespController
# 
# Top level modules:
# 	caxi4interconnect_RespController
# End time: 10:01:09 on Sep 10,2019, Elapsed time: 0:00:00
# Errors: 0, Warnings: 0
# vlog -work work  "${PROJECT_DIR}/rtl/Axi4CrossBar/RoundRobinArb.v"
# Model Technology ModelSim Microsemi vlog 10.7c Compiler 2018.10 Oct 15 2018
# Start time: 10:01:09 on Sep 10,2019
# vlog -reportprogress 300 -work work C:/Users/Kpatel1/Desktop/Krupesh/microsemi/CoreAXI4Interconnect/trunk/rtl/Axi4CrossBar/RoundRobinArb.v 
# -- Compiling module caxi4interconnect_RoundRobinArb
# 
# Top level modules:
# 	caxi4interconnect_RoundRobinArb
# End time: 10:01:09 on Sep 10,2019, Elapsed time: 0:00:00
# Errors: 0, Warnings: 0
# vlog -work work  "${PROJECT_DIR}/rtl/Axi4CrossBar/SlaveDataMuxController.v"
# Model Technology ModelSim Microsemi vlog 10.7c Compiler 2018.10 Oct 15 2018
# Start time: 10:01:09 on Sep 10,2019
# vlog -reportprogress 300 -work work C:/Users/Kpatel1/Desktop/Krupesh/microsemi/CoreAXI4Interconnect/trunk/rtl/Axi4CrossBar/SlaveDataMuxController.v 
# -- Compiling module caxi4interconnect_SlaveDataMuxController
# 
# Top level modules:
# 	caxi4interconnect_SlaveDataMuxController
# End time: 10:01:09 on Sep 10,2019, Elapsed time: 0:00:00
# Errors: 0, Warnings: 0
# vlog -work work  "${PROJECT_DIR}/rtl/Axi4CrossBar/TargetMuxController.v"
# Model Technology ModelSim Microsemi vlog 10.7c Compiler 2018.10 Oct 15 2018
# Start time: 10:01:09 on Sep 10,2019
# vlog -reportprogress 300 -work work C:/Users/Kpatel1/Desktop/Krupesh/microsemi/CoreAXI4Interconnect/trunk/rtl/Axi4CrossBar/TargetMuxController.v 
# -- Compiling module caxi4interconnect_TargetMuxController
# 
# Top level modules:
# 	caxi4interconnect_TargetMuxController
# End time: 10:01:09 on Sep 10,2019, Elapsed time: 0:00:00
# Errors: 0, Warnings: 0
# vlog -work work  "${PROJECT_DIR}/rtl/Axi4CrossBar/TransactionController.v"
# Model Technology ModelSim Microsemi vlog 10.7c Compiler 2018.10 Oct 15 2018
# Start time: 10:01:10 on Sep 10,2019
# vlog -reportprogress 300 -work work C:/Users/Kpatel1/Desktop/Krupesh/microsemi/CoreAXI4Interconnect/trunk/rtl/Axi4CrossBar/TransactionController.v 
# -- Compiling module caxi4interconnect_TransactionController
# 
# Top level modules:
# 	caxi4interconnect_TransactionController
# End time: 10:01:10 on Sep 10,2019, Elapsed time: 0:00:00
# Errors: 0, Warnings: 0
# vlog -work work  "${PROJECT_DIR}/rtl/Axi4CrossBar/WDataController.v"
# Model Technology ModelSim Microsemi vlog 10.7c Compiler 2018.10 Oct 15 2018
# Start time: 10:01:10 on Sep 10,2019
# vlog -reportprogress 300 -work work C:/Users/Kpatel1/Desktop/Krupesh/microsemi/CoreAXI4Interconnect/trunk/rtl/Axi4CrossBar/WDataController.v 
# -- Compiling module caxi4interconnect_WDataController
# 
# Top level modules:
# 	caxi4interconnect_WDataController
# End time: 10:01:10 on Sep 10,2019, Elapsed time: 0:00:00
# Errors: 0, Warnings: 0
# vlog -work work  "${PROJECT_DIR}/rtl/Axi4CrossBar/WriteDataMux.v"
# Model Technology ModelSim Microsemi vlog 10.7c Compiler 2018.10 Oct 15 2018
# Start time: 10:01:10 on Sep 10,2019
# vlog -reportprogress 300 -work work C:/Users/Kpatel1/Desktop/Krupesh/microsemi/CoreAXI4Interconnect/trunk/rtl/Axi4CrossBar/WriteDataMux.v 
# -- Compiling module caxi4interconnect_WriteDataMux
# 
# Top level modules:
# 	caxi4interconnect_WriteDataMux
# End time: 10:01:10 on Sep 10,2019, Elapsed time: 0:00:00
# Errors: 0, Warnings: 0
# 
# vlog -work work  "${PROJECT_DIR}/rtl/Axi4Convertors/DWC_DownConv_preCalcCmdFifoWrCtrl.v"
# Model Technology ModelSim Microsemi vlog 10.7c Compiler 2018.10 Oct 15 2018
# Start time: 10:01:10 on Sep 10,2019
# vlog -reportprogress 300 -work work C:/Users/Kpatel1/Desktop/Krupesh/microsemi/CoreAXI4Interconnect/trunk/rtl/Axi4Convertors/DWC_DownConv_preCalcCmdFifoWrCtrl.v 
# -- Compiling module caxi4interconnect_DWC_DownConv_preCalcCmdFifoWrCtrl
# 
# Top level modules:
# 	caxi4interconnect_DWC_DownConv_preCalcCmdFifoWrCtrl
# End time: 10:01:10 on Sep 10,2019, Elapsed time: 0:00:00
# Errors: 0, Warnings: 0
# vlog -work work  "${PROJECT_DIR}/rtl/Axi4Convertors/Hold_Reg_Ctrl.v"
# Model Technology ModelSim Microsemi vlog 10.7c Compiler 2018.10 Oct 15 2018
# Start time: 10:01:10 on Sep 10,2019
# vlog -reportprogress 300 -work work C:/Users/Kpatel1/Desktop/Krupesh/microsemi/CoreAXI4Interconnect/trunk/rtl/Axi4Convertors/Hold_Reg_Ctrl.v 
# -- Compiling module caxi4interconnect_Hold_Reg_Ctrl
# 
# Top level modules:
# 	caxi4interconnect_Hold_Reg_Ctrl
# End time: 10:01:10 on Sep 10,2019, Elapsed time: 0:00:00
# Errors: 0, Warnings: 0
# vlog -work work  "${PROJECT_DIR}/rtl/Axi4Convertors/DWC_DownConv_Hold_Reg_Wr.v"
# Model Technology ModelSim Microsemi vlog 10.7c Compiler 2018.10 Oct 15 2018
# Start time: 10:01:10 on Sep 10,2019
# vlog -reportprogress 300 -work work C:/Users/Kpatel1/Desktop/Krupesh/microsemi/CoreAXI4Interconnect/trunk/rtl/Axi4Convertors/DWC_DownConv_Hold_Reg_Wr.v 
# -- Compiling module caxi4interconnect_DWC_DownConv_Hold_Reg_Wr
# 
# Top level modules:
# 	caxi4interconnect_DWC_DownConv_Hold_Reg_Wr
# End time: 10:01:10 on Sep 10,2019, Elapsed time: 0:00:00
# Errors: 0, Warnings: 0
# vlog -work work  "${PROJECT_DIR}/rtl/Axi4Convertors/DWC_DownConv_Hold_Reg_Rd.v"
# Model Technology ModelSim Microsemi vlog 10.7c Compiler 2018.10 Oct 15 2018
# Start time: 10:01:10 on Sep 10,2019
# vlog -reportprogress 300 -work work C:/Users/Kpatel1/Desktop/Krupesh/microsemi/CoreAXI4Interconnect/trunk/rtl/Axi4Convertors/DWC_DownConv_Hold_Reg_Rd.v 
# -- Compiling module caxi4interconnect_DWC_DownConv_Hold_Reg_Rd
# 
# Top level modules:
# 	caxi4interconnect_DWC_DownConv_Hold_Reg_Rd
# End time: 10:01:10 on Sep 10,2019, Elapsed time: 0:00:00
# Errors: 0, Warnings: 0
# 
# vlog -work work  "${PROJECT_DIR}/rtl/Axi4Convertors/MasterConvertor.v"
# Model Technology ModelSim Microsemi vlog 10.7c Compiler 2018.10 Oct 15 2018
# Start time: 10:01:11 on Sep 10,2019
# vlog -reportprogress 300 -work work C:/Users/Kpatel1/Desktop/Krupesh/microsemi/CoreAXI4Interconnect/trunk/rtl/Axi4Convertors/MasterConvertor.v 
# -- Compiling module caxi4interconnect_MasterConvertor
# 
# Top level modules:
# 	caxi4interconnect_MasterConvertor
# End time: 10:01:11 on Sep 10,2019, Elapsed time: 0:00:00
# Errors: 0, Warnings: 0
# vlog -work work  "${PROJECT_DIR}/rtl/Axi4Convertors/MstrAHBtoAXI4Converter.v"
# Model Technology ModelSim Microsemi vlog 10.7c Compiler 2018.10 Oct 15 2018
# Start time: 10:01:11 on Sep 10,2019
# vlog -reportprogress 300 -work work C:/Users/Kpatel1/Desktop/Krupesh/microsemi/CoreAXI4Interconnect/trunk/rtl/Axi4Convertors/MstrAHBtoAXI4Converter.v 
# -- Compiling module caxi4interconnect_MstrAHBtoAXI4Converter
# 
# Top level modules:
# 	caxi4interconnect_MstrAHBtoAXI4Converter
# End time: 10:01:11 on Sep 10,2019, Elapsed time: 0:00:00
# Errors: 0, Warnings: 0
# vlog -work work  "${PROJECT_DIR}/rtl/Axi4Convertors/AHBL_Ctrl.v"
# Model Technology ModelSim Microsemi vlog 10.7c Compiler 2018.10 Oct 15 2018
# Start time: 10:01:11 on Sep 10,2019
# vlog -reportprogress 300 -work work C:/Users/Kpatel1/Desktop/Krupesh/microsemi/CoreAXI4Interconnect/trunk/rtl/Axi4Convertors/AHBL_Ctrl.v 
# -- Compiling module caxi4interconnect_AHBL_Ctrl
# 
# Top level modules:
# 	caxi4interconnect_AHBL_Ctrl
# End time: 10:01:11 on Sep 10,2019, Elapsed time: 0:00:00
# Errors: 0, Warnings: 0
# vlog -work work  "${PROJECT_DIR}/rtl/Axi4Convertors/AXI4_Read_Ctrl.v"
# Model Technology ModelSim Microsemi vlog 10.7c Compiler 2018.10 Oct 15 2018
# Start time: 10:01:11 on Sep 10,2019
# vlog -reportprogress 300 -work work C:/Users/Kpatel1/Desktop/Krupesh/microsemi/CoreAXI4Interconnect/trunk/rtl/Axi4Convertors/AXI4_Read_Ctrl.v 
# -- Compiling module caxi4interconnect_AXI4_Read_Ctrl
# 
# Top level modules:
# 	caxi4interconnect_AXI4_Read_Ctrl
# End time: 10:01:11 on Sep 10,2019, Elapsed time: 0:00:00
# Errors: 0, Warnings: 0
# vlog -work work  "${PROJECT_DIR}/rtl/Axi4Convertors/AXI4_Write_Ctrl.v"														
# Model Technology ModelSim Microsemi vlog 10.7c Compiler 2018.10 Oct 15 2018
# Start time: 10:01:11 on Sep 10,2019
# vlog -reportprogress 300 -work work C:/Users/Kpatel1/Desktop/Krupesh/microsemi/CoreAXI4Interconnect/trunk/rtl/Axi4Convertors/AXI4_Write_Ctrl.v 
# -- Compiling module caxi4interconnect_AXI4_Write_Ctrl
# 
# Top level modules:
# 	caxi4interconnect_AXI4_Write_Ctrl
# End time: 10:01:11 on Sep 10,2019, Elapsed time: 0:00:00
# Errors: 0, Warnings: 0
# vlog -work work  "${PROJECT_DIR}/rtl/Axi4Convertors/AHB_SM.v"
# Model Technology ModelSim Microsemi vlog 10.7c Compiler 2018.10 Oct 15 2018
# Start time: 10:01:11 on Sep 10,2019
# vlog -reportprogress 300 -work work C:/Users/Kpatel1/Desktop/Krupesh/microsemi/CoreAXI4Interconnect/trunk/rtl/Axi4Convertors/AHB_SM.v 
# -- Compiling module caxi4interconnect_AHB_SM
# 
# Top level modules:
# 	caxi4interconnect_AHB_SM
# End time: 10:01:11 on Sep 10,2019, Elapsed time: 0:00:00
# Errors: 0, Warnings: 0
# vlog -work work  "${PROJECT_DIR}/rtl/Axi4Convertors/MstrProtocolConverter.v"
# Model Technology ModelSim Microsemi vlog 10.7c Compiler 2018.10 Oct 15 2018
# Start time: 10:01:11 on Sep 10,2019
# vlog -reportprogress 300 -work work C:/Users/Kpatel1/Desktop/Krupesh/microsemi/CoreAXI4Interconnect/trunk/rtl/Axi4Convertors/MstrProtocolConverter.v 
# -- Compiling module caxi4interconnect_MstrProtocolConverter
# 
# Top level modules:
# 	caxi4interconnect_MstrProtocolConverter
# End time: 10:01:12 on Sep 10,2019, Elapsed time: 0:00:01
# Errors: 0, Warnings: 0
# vlog -work work  "${PROJECT_DIR}/rtl/Axi4Convertors/MstrDataWidthConv.v"
# Model Technology ModelSim Microsemi vlog 10.7c Compiler 2018.10 Oct 15 2018
# Start time: 10:01:12 on Sep 10,2019
# vlog -reportprogress 300 -work work C:/Users/Kpatel1/Desktop/Krupesh/microsemi/CoreAXI4Interconnect/trunk/rtl/Axi4Convertors/MstrDataWidthConv.v 
# -- Compiling module caxi4interconnect_MstrDataWidthConv
# 
# Top level modules:
# 	caxi4interconnect_MstrDataWidthConv
# End time: 10:01:12 on Sep 10,2019, Elapsed time: 0:00:00
# Errors: 0, Warnings: 0
# vlog -work work  "${PROJECT_DIR}/rtl/Axi4Convertors/RegisterSlice.v"
# Model Technology ModelSim Microsemi vlog 10.7c Compiler 2018.10 Oct 15 2018
# Start time: 10:01:12 on Sep 10,2019
# vlog -reportprogress 300 -work work C:/Users/Kpatel1/Desktop/Krupesh/microsemi/CoreAXI4Interconnect/trunk/rtl/Axi4Convertors/RegisterSlice.v 
# -- Compiling module caxi4interconnect_RegisterSlice
# 
# Top level modules:
# 	caxi4interconnect_RegisterSlice
# End time: 10:01:12 on Sep 10,2019, Elapsed time: 0:00:00
# Errors: 0, Warnings: 0
# vlog -work work  "${PROJECT_DIR}/rtl/Axi4Convertors/RegSliceFull.v"
# Model Technology ModelSim Microsemi vlog 10.7c Compiler 2018.10 Oct 15 2018
# Start time: 10:01:12 on Sep 10,2019
# vlog -reportprogress 300 -work work C:/Users/Kpatel1/Desktop/Krupesh/microsemi/CoreAXI4Interconnect/trunk/rtl/Axi4Convertors/RegSliceFull.v 
# -- Compiling module caxi4interconnect_RegSliceFull
# 
# Top level modules:
# 	caxi4interconnect_RegSliceFull
# End time: 10:01:12 on Sep 10,2019, Elapsed time: 0:00:00
# Errors: 0, Warnings: 0
# vlog -work work  "${PROJECT_DIR}/rtl/Axi4Convertors/SlaveConvertor.v"
# Model Technology ModelSim Microsemi vlog 10.7c Compiler 2018.10 Oct 15 2018
# Start time: 10:01:12 on Sep 10,2019
# vlog -reportprogress 300 -work work C:/Users/Kpatel1/Desktop/Krupesh/microsemi/CoreAXI4Interconnect/trunk/rtl/Axi4Convertors/SlaveConvertor.v 
# -- Compiling module caxi4interconnect_SlaveConvertor
# 
# Top level modules:
# 	caxi4interconnect_SlaveConvertor
# End time: 10:01:12 on Sep 10,2019, Elapsed time: 0:00:00
# Errors: 0, Warnings: 0
# vlog -work work  "${PROJECT_DIR}/rtl/Axi4Convertors/SlvProtocolConverter.v"
# Model Technology ModelSim Microsemi vlog 10.7c Compiler 2018.10 Oct 15 2018
# Start time: 10:01:12 on Sep 10,2019
# vlog -reportprogress 300 -work work C:/Users/Kpatel1/Desktop/Krupesh/microsemi/CoreAXI4Interconnect/trunk/rtl/Axi4Convertors/SlvProtocolConverter.v 
# -- Compiling module caxi4interconnect_SlvProtocolConverter
# 
# Top level modules:
# 	caxi4interconnect_SlvProtocolConverter
# End time: 10:01:12 on Sep 10,2019, Elapsed time: 0:00:00
# Errors: 0, Warnings: 0
# vlog -work work  "${PROJECT_DIR}/rtl/Axi4Convertors/SlvAxi4ProtocolConv.v"
# Model Technology ModelSim Microsemi vlog 10.7c Compiler 2018.10 Oct 15 2018
# Start time: 10:01:13 on Sep 10,2019
# vlog -reportprogress 300 -work work C:/Users/Kpatel1/Desktop/Krupesh/microsemi/CoreAXI4Interconnect/trunk/rtl/Axi4Convertors/SlvAxi4ProtocolConv.v 
# -- Compiling module caxi4interconnect_SlvAxi4ProtocolConv
# 
# Top level modules:
# 	caxi4interconnect_SlvAxi4ProtocolConv
# End time: 10:01:13 on Sep 10,2019, Elapsed time: 0:00:00
# Errors: 0, Warnings: 0
# vlog -work work  "${PROJECT_DIR}/rtl/Axi4Convertors/SlvAxi4ProtConvRead.v"
# Model Technology ModelSim Microsemi vlog 10.7c Compiler 2018.10 Oct 15 2018
# Start time: 10:01:13 on Sep 10,2019
# vlog -reportprogress 300 -work work C:/Users/Kpatel1/Desktop/Krupesh/microsemi/CoreAXI4Interconnect/trunk/rtl/Axi4Convertors/SlvAxi4ProtConvRead.v 
# -- Compiling module caxi4interconnect_SlvAxi4ProtConvRead
# 
# Top level modules:
# 	caxi4interconnect_SlvAxi4ProtConvRead
# End time: 10:01:13 on Sep 10,2019, Elapsed time: 0:00:00
# Errors: 0, Warnings: 0
# vlog -work work  "${PROJECT_DIR}/rtl/Axi4Convertors/SlvAxi4ProtConvWrite.v"
# Model Technology ModelSim Microsemi vlog 10.7c Compiler 2018.10 Oct 15 2018
# Start time: 10:01:13 on Sep 10,2019
# vlog -reportprogress 300 -work work C:/Users/Kpatel1/Desktop/Krupesh/microsemi/CoreAXI4Interconnect/trunk/rtl/Axi4Convertors/SlvAxi4ProtConvWrite.v 
# -- Compiling module caxi4interconnect_SlvAxi4ProtConvWrite
# 
# Top level modules:
# 	caxi4interconnect_SlvAxi4ProtConvWrite
# End time: 10:01:13 on Sep 10,2019, Elapsed time: 0:00:00
# Errors: 0, Warnings: 0
# vlog -work work  "${PROJECT_DIR}/rtl/Axi4Convertors/SlvAxi4ProtConvAXI4ID.v"
# Model Technology ModelSim Microsemi vlog 10.7c Compiler 2018.10 Oct 15 2018
# Start time: 10:01:13 on Sep 10,2019
# vlog -reportprogress 300 -work work C:/Users/Kpatel1/Desktop/Krupesh/microsemi/CoreAXI4Interconnect/trunk/rtl/Axi4Convertors/SlvAxi4ProtConvAXI4ID.v 
# -- Compiling module caxi4interconnect_SlvAxi4ProtConvAXI4ID
# 
# Top level modules:
# 	caxi4interconnect_SlvAxi4ProtConvAXI4ID
# End time: 10:01:13 on Sep 10,2019, Elapsed time: 0:00:00
# Errors: 0, Warnings: 0
# 
# 
# vlog -work work  "${PROJECT_DIR}/rtl/Axi4Convertors/SlvDataWidthConverter.v"
# Model Technology ModelSim Microsemi vlog 10.7c Compiler 2018.10 Oct 15 2018
# Start time: 10:01:13 on Sep 10,2019
# vlog -reportprogress 300 -work work C:/Users/Kpatel1/Desktop/Krupesh/microsemi/CoreAXI4Interconnect/trunk/rtl/Axi4Convertors/SlvDataWidthConverter.v 
# -- Compiling module caxi4interconnect_SlvDataWidthConverter
# 
# Top level modules:
# 	caxi4interconnect_SlvDataWidthConverter
# End time: 10:01:13 on Sep 10,2019, Elapsed time: 0:00:00
# Errors: 0, Warnings: 0
# vlog -work work  "${PROJECT_DIR}/rtl/Axi4Convertors/RAM_BLOCK.v"
# Model Technology ModelSim Microsemi vlog 10.7c Compiler 2018.10 Oct 15 2018
# Start time: 10:01:13 on Sep 10,2019
# vlog -reportprogress 300 -work work C:/Users/Kpatel1/Desktop/Krupesh/microsemi/CoreAXI4Interconnect/trunk/rtl/Axi4Convertors/RAM_BLOCK.v 
# -- Compiling module caxi4interconnect_RAM_BLOCK
# 
# Top level modules:
# 	caxi4interconnect_RAM_BLOCK
# End time: 10:01:13 on Sep 10,2019, Elapsed time: 0:00:00
# Errors: 0, Warnings: 0
# vlog -work work  "${PROJECT_DIR}/rtl/Axi4Convertors/DWC_UpConv_Wchan_WriteDataFifoCtrl.v"
# Model Technology ModelSim Microsemi vlog 10.7c Compiler 2018.10 Oct 15 2018
# Start time: 10:01:13 on Sep 10,2019
# vlog -reportprogress 300 -work work C:/Users/Kpatel1/Desktop/Krupesh/microsemi/CoreAXI4Interconnect/trunk/rtl/Axi4Convertors/DWC_UpConv_Wchan_WriteDataFifoCtrl.v 
# -- Compiling module caxi4interconnect_DWC_UpConv_Wchan_WriteDataFifoCtrl
# 
# Top level modules:
# 	caxi4interconnect_DWC_UpConv_Wchan_WriteDataFifoCtrl
# End time: 10:01:14 on Sep 10,2019, Elapsed time: 0:00:01
# Errors: 0, Warnings: 0
# vlog -work work  "${PROJECT_DIR}/rtl/Axi4Convertors/FIFO_CTRL.v"
# Model Technology ModelSim Microsemi vlog 10.7c Compiler 2018.10 Oct 15 2018
# Start time: 10:01:14 on Sep 10,2019
# vlog -reportprogress 300 -work work C:/Users/Kpatel1/Desktop/Krupesh/microsemi/CoreAXI4Interconnect/trunk/rtl/Axi4Convertors/FIFO_CTRL.v 
# -- Compiling module caxi4interconnect_FIFO_CTRL
# 
# Top level modules:
# 	caxi4interconnect_FIFO_CTRL
# End time: 10:01:14 on Sep 10,2019, Elapsed time: 0:00:00
# Errors: 0, Warnings: 0
# vlog -work work  "${PROJECT_DIR}/rtl/Axi4Convertors/FIFO.v"
# Model Technology ModelSim Microsemi vlog 10.7c Compiler 2018.10 Oct 15 2018
# Start time: 10:01:14 on Sep 10,2019
# vlog -reportprogress 300 -work work C:/Users/Kpatel1/Desktop/Krupesh/microsemi/CoreAXI4Interconnect/trunk/rtl/Axi4Convertors/FIFO.v 
# -- Compiling module caxi4interconnect_FIFO
# 
# Top level modules:
# 	caxi4interconnect_FIFO
# End time: 10:01:14 on Sep 10,2019, Elapsed time: 0:00:00
# Errors: 0, Warnings: 0
# vlog -work work  "${PROJECT_DIR}/rtl/Axi4Convertors/FIFO_upsizing.v"
# Model Technology ModelSim Microsemi vlog 10.7c Compiler 2018.10 Oct 15 2018
# Start time: 10:01:14 on Sep 10,2019
# vlog -reportprogress 300 -work work C:/Users/Kpatel1/Desktop/Krupesh/microsemi/CoreAXI4Interconnect/trunk/rtl/Axi4Convertors/FIFO_upsizing.v 
# -- Compiling module caxi4interconnect_FIFO_upsizing
# 
# Top level modules:
# 	caxi4interconnect_FIFO_upsizing
# End time: 10:01:14 on Sep 10,2019, Elapsed time: 0:00:00
# Errors: 0, Warnings: 0
# vlog -work work  "${PROJECT_DIR}/rtl/Axi4Convertors/DWC_UpConv_WChan_ReadDataFifoCtrl.v"
# Model Technology ModelSim Microsemi vlog 10.7c Compiler 2018.10 Oct 15 2018
# Start time: 10:01:14 on Sep 10,2019
# vlog -reportprogress 300 -work work C:/Users/Kpatel1/Desktop/Krupesh/microsemi/CoreAXI4Interconnect/trunk/rtl/Axi4Convertors/DWC_UpConv_WChan_ReadDataFifoCtrl.v 
# -- Compiling module caxi4interconnect_DWC_UpConv_WChan_ReadDataFifoCtrl
# 
# Top level modules:
# 	caxi4interconnect_DWC_UpConv_WChan_ReadDataFifoCtrl
# End time: 10:01:14 on Sep 10,2019, Elapsed time: 0:00:00
# Errors: 0, Warnings: 0
# vlog -work work  "${PROJECT_DIR}/rtl/Axi4Convertors/DWC_UpConv_RChan_Ctrl.v"
# Model Technology ModelSim Microsemi vlog 10.7c Compiler 2018.10 Oct 15 2018
# Start time: 10:01:14 on Sep 10,2019
# vlog -reportprogress 300 -work work C:/Users/Kpatel1/Desktop/Krupesh/microsemi/CoreAXI4Interconnect/trunk/rtl/Axi4Convertors/DWC_UpConv_RChan_Ctrl.v 
# -- Compiling module caxi4interconnect_DWC_UpConv_RChan_Ctrl
# 
# Top level modules:
# 	caxi4interconnect_DWC_UpConv_RChan_Ctrl
# End time: 10:01:14 on Sep 10,2019, Elapsed time: 0:00:00
# Errors: 0, Warnings: 0
# vlog -work work  "${PROJECT_DIR}/rtl/Axi4Convertors/DWC_UpConv_WChannel.v"
# Model Technology ModelSim Microsemi vlog 10.7c Compiler 2018.10 Oct 15 2018
# Start time: 10:01:14 on Sep 10,2019
# vlog -reportprogress 300 -work work C:/Users/Kpatel1/Desktop/Krupesh/microsemi/CoreAXI4Interconnect/trunk/rtl/Axi4Convertors/DWC_UpConv_WChannel.v 
# -- Compiling module caxi4interconnect_DWC_UpConv_WChannel
# 
# Top level modules:
# 	caxi4interconnect_DWC_UpConv_WChannel
# End time: 10:01:15 on Sep 10,2019, Elapsed time: 0:00:01
# Errors: 0, Warnings: 0
# vlog -work work  "${PROJECT_DIR}/rtl/Axi4Convertors/DWC_UpConv_BChannel.v"
# Model Technology ModelSim Microsemi vlog 10.7c Compiler 2018.10 Oct 15 2018
# Start time: 10:01:15 on Sep 10,2019
# vlog -reportprogress 300 -work work C:/Users/Kpatel1/Desktop/Krupesh/microsemi/CoreAXI4Interconnect/trunk/rtl/Axi4Convertors/DWC_UpConv_BChannel.v 
# -- Compiling module caxi4interconnect_DWC_UpConv_BChannel
# 
# Top level modules:
# 	caxi4interconnect_DWC_UpConv_BChannel
# End time: 10:01:15 on Sep 10,2019, Elapsed time: 0:00:00
# Errors: 0, Warnings: 0
# vlog -work work  "${PROJECT_DIR}/rtl/Axi4Convertors/DWC_UpConv_AChannel.v"
# Model Technology ModelSim Microsemi vlog 10.7c Compiler 2018.10 Oct 15 2018
# Start time: 10:01:15 on Sep 10,2019
# vlog -reportprogress 300 -work work C:/Users/Kpatel1/Desktop/Krupesh/microsemi/CoreAXI4Interconnect/trunk/rtl/Axi4Convertors/DWC_UpConv_AChannel.v 
# -- Compiling module caxi4interconnect_DWC_UpConv_AChannel
# 
# Top level modules:
# 	caxi4interconnect_DWC_UpConv_AChannel
# End time: 10:01:15 on Sep 10,2019, Elapsed time: 0:00:00
# Errors: 0, Warnings: 0
# vlog -work work  "${PROJECT_DIR}/rtl/Axi4Convertors/UpConverter.v"
# Model Technology ModelSim Microsemi vlog 10.7c Compiler 2018.10 Oct 15 2018
# Start time: 10:01:15 on Sep 10,2019
# vlog -reportprogress 300 -work work C:/Users/Kpatel1/Desktop/Krupesh/microsemi/CoreAXI4Interconnect/trunk/rtl/Axi4Convertors/UpConverter.v 
# -- Compiling module caxi4interconnect_UpConverter
# 
# Top level modules:
# 	caxi4interconnect_UpConverter
# End time: 10:01:15 on Sep 10,2019, Elapsed time: 0:00:00
# Errors: 0, Warnings: 0
# vlog -work work  "${PROJECT_DIR}/rtl/Axi4Convertors/FIFO_downsizing.v"
# Model Technology ModelSim Microsemi vlog 10.7c Compiler 2018.10 Oct 15 2018
# Start time: 10:01:15 on Sep 10,2019
# vlog -reportprogress 300 -work work C:/Users/Kpatel1/Desktop/Krupesh/microsemi/CoreAXI4Interconnect/trunk/rtl/Axi4Convertors/FIFO_downsizing.v 
# -- Compiling module caxi4interconnect_FIFO_downsizing
# 
# Top level modules:
# 	caxi4interconnect_FIFO_downsizing
# End time: 10:01:15 on Sep 10,2019, Elapsed time: 0:00:00
# Errors: 0, Warnings: 0
# vlog -work work  "${PROJECT_DIR}/rtl/Axi4Convertors/DWC_UpConv_RChannel.v"
# Model Technology ModelSim Microsemi vlog 10.7c Compiler 2018.10 Oct 15 2018
# Start time: 10:01:15 on Sep 10,2019
# vlog -reportprogress 300 -work work C:/Users/Kpatel1/Desktop/Krupesh/microsemi/CoreAXI4Interconnect/trunk/rtl/Axi4Convertors/DWC_UpConv_RChannel.v 
# -- Compiling module caxi4interconnect_DWC_UpConv_RChannel
# 
# Top level modules:
# 	caxi4interconnect_DWC_UpConv_RChannel
# End time: 10:01:15 on Sep 10,2019, Elapsed time: 0:00:00
# Errors: 0, Warnings: 0
# vlog -work work  "${PROJECT_DIR}/rtl/Axi4Convertors/DWC_UpConv_RChannel_SlvRid_Arb.v"
# Model Technology ModelSim Microsemi vlog 10.7c Compiler 2018.10 Oct 15 2018
# Start time: 10:01:15 on Sep 10,2019
# vlog -reportprogress 300 -work work C:/Users/Kpatel1/Desktop/Krupesh/microsemi/CoreAXI4Interconnect/trunk/rtl/Axi4Convertors/DWC_UpConv_RChannel_SlvRid_Arb.v 
# -- Compiling module caxi4interconnect_DWC_RChannel_SlvRid_Arb
# 
# Top level modules:
# 	caxi4interconnect_DWC_RChannel_SlvRid_Arb
# End time: 10:01:15 on Sep 10,2019, Elapsed time: 0:00:00
# Errors: 0, Warnings: 0
# vlog -work work  "${PROJECT_DIR}/rtl/Axi4Convertors/DWC_UpConv_WChan_Hold_Reg.v"
# Model Technology ModelSim Microsemi vlog 10.7c Compiler 2018.10 Oct 15 2018
# Start time: 10:01:16 on Sep 10,2019
# vlog -reportprogress 300 -work work C:/Users/Kpatel1/Desktop/Krupesh/microsemi/CoreAXI4Interconnect/trunk/rtl/Axi4Convertors/DWC_UpConv_WChan_Hold_Reg.v 
# -- Compiling module caxi4interconnect_DWC_UpConv_WChan_Hold_Reg
# 
# Top level modules:
# 	caxi4interconnect_DWC_UpConv_WChan_Hold_Reg
# End time: 10:01:16 on Sep 10,2019, Elapsed time: 0:00:00
# Errors: 0, Warnings: 0
# vlog -work work  "${PROJECT_DIR}/rtl/Axi4Convertors/DWC_UpConv_preCalcAChannel.v"
# Model Technology ModelSim Microsemi vlog 10.7c Compiler 2018.10 Oct 15 2018
# Start time: 10:01:16 on Sep 10,2019
# vlog -reportprogress 300 -work work C:/Users/Kpatel1/Desktop/Krupesh/microsemi/CoreAXI4Interconnect/trunk/rtl/Axi4Convertors/DWC_UpConv_preCalcAChannel.v 
# -- Compiling module caxi4interconnect_DWC_UpConv_preCalcAChannel
# 
# Top level modules:
# 	caxi4interconnect_DWC_UpConv_preCalcAChannel
# End time: 10:01:16 on Sep 10,2019, Elapsed time: 0:00:00
# Errors: 0, Warnings: 0
# vlog -work work  "${PROJECT_DIR}/rtl/Axi4Convertors/DWC_UpConv_preCalcRChan_Ctrl.v"
# Model Technology ModelSim Microsemi vlog 10.7c Compiler 2018.10 Oct 15 2018
# Start time: 10:01:16 on Sep 10,2019
# vlog -reportprogress 300 -work work C:/Users/Kpatel1/Desktop/Krupesh/microsemi/CoreAXI4Interconnect/trunk/rtl/Axi4Convertors/DWC_UpConv_preCalcRChan_Ctrl.v 
# -- Compiling module caxi4interconnect_DWC_UpConv_preCalcRChan_Ctrl
# 
# Top level modules:
# 	caxi4interconnect_DWC_UpConv_preCalcRChan_Ctrl
# End time: 10:01:16 on Sep 10,2019, Elapsed time: 0:00:00
# Errors: 0, Warnings: 0
# 
# vlog -work work  "${PROJECT_DIR}/rtl/Axi4Convertors/CDC_FIFO.v"
# Model Technology ModelSim Microsemi vlog 10.7c Compiler 2018.10 Oct 15 2018
# Start time: 10:01:16 on Sep 10,2019
# vlog -reportprogress 300 -work work C:/Users/Kpatel1/Desktop/Krupesh/microsemi/CoreAXI4Interconnect/trunk/rtl/Axi4Convertors/CDC_FIFO.v 
# -- Compiling module caxi4interconnect_CDC_FIFO
# 
# Top level modules:
# 	caxi4interconnect_CDC_FIFO
# End time: 10:01:16 on Sep 10,2019, Elapsed time: 0:00:00
# Errors: 0, Warnings: 0
# vlog -work work  "${PROJECT_DIR}/rtl/Axi4Convertors/CDC_rdCtrl.v"
# Model Technology ModelSim Microsemi vlog 10.7c Compiler 2018.10 Oct 15 2018
# Start time: 10:01:16 on Sep 10,2019
# vlog -reportprogress 300 -work work C:/Users/Kpatel1/Desktop/Krupesh/microsemi/CoreAXI4Interconnect/trunk/rtl/Axi4Convertors/CDC_rdCtrl.v 
# -- Compiling module caxi4interconnect_CDC_rdCtrl
# 
# Top level modules:
# 	caxi4interconnect_CDC_rdCtrl
# End time: 10:01:16 on Sep 10,2019, Elapsed time: 0:00:00
# Errors: 0, Warnings: 0
# vlog -work work  "${PROJECT_DIR}/rtl/Axi4Convertors/CDC_wrCtrl.v"
# Model Technology ModelSim Microsemi vlog 10.7c Compiler 2018.10 Oct 15 2018
# Start time: 10:01:16 on Sep 10,2019
# vlog -reportprogress 300 -work work C:/Users/Kpatel1/Desktop/Krupesh/microsemi/CoreAXI4Interconnect/trunk/rtl/Axi4Convertors/CDC_wrCtrl.v 
# -- Compiling module caxi4interconnect_CDC_wrCtrl
# 
# Top level modules:
# 	caxi4interconnect_CDC_wrCtrl
# End time: 10:01:16 on Sep 10,2019, Elapsed time: 0:00:00
# Errors: 0, Warnings: 0
# vlog -work work  "${PROJECT_DIR}/rtl/Axi4Convertors/CDC_grayCodeCounter.v"
# Model Technology ModelSim Microsemi vlog 10.7c Compiler 2018.10 Oct 15 2018
# Start time: 10:01:16 on Sep 10,2019
# vlog -reportprogress 300 -work work C:/Users/Kpatel1/Desktop/Krupesh/microsemi/CoreAXI4Interconnect/trunk/rtl/Axi4Convertors/CDC_grayCodeCounter.v 
# -- Compiling module caxi4interconnect_CDC_grayCodeCounter
# 
# Top level modules:
# 	caxi4interconnect_CDC_grayCodeCounter
# End time: 10:01:17 on Sep 10,2019, Elapsed time: 0:00:01
# Errors: 0, Warnings: 0
# vlog -work work  "${PROJECT_DIR}/rtl/Axi4Convertors/Bin2Gray.v"
# Model Technology ModelSim Microsemi vlog 10.7c Compiler 2018.10 Oct 15 2018
# Start time: 10:01:17 on Sep 10,2019
# vlog -reportprogress 300 -work work C:/Users/Kpatel1/Desktop/Krupesh/microsemi/CoreAXI4Interconnect/trunk/rtl/Axi4Convertors/Bin2Gray.v 
# -- Compiling module caxi4interconnect_Bin2Gray
# 
# Top level modules:
# 	caxi4interconnect_Bin2Gray
# End time: 10:01:17 on Sep 10,2019, Elapsed time: 0:00:00
# Errors: 0, Warnings: 0
# vlog -work work  "${PROJECT_DIR}/rtl/Axi4Convertors/byte2bit.v"
# Model Technology ModelSim Microsemi vlog 10.7c Compiler 2018.10 Oct 15 2018
# Start time: 10:01:17 on Sep 10,2019
# vlog -reportprogress 300 -work work C:/Users/Kpatel1/Desktop/Krupesh/microsemi/CoreAXI4Interconnect/trunk/rtl/Axi4Convertors/byte2bit.v 
# -- Compiling module caxi4interconnect_byte2bit
# 
# Top level modules:
# 	caxi4interconnect_byte2bit
# End time: 10:01:17 on Sep 10,2019, Elapsed time: 0:00:00
# Errors: 0, Warnings: 0
# vlog -work work  "${PROJECT_DIR}/rtl/Axi4Convertors/SlvClockDomainCrossing.v"
# Model Technology ModelSim Microsemi vlog 10.7c Compiler 2018.10 Oct 15 2018
# Start time: 10:01:17 on Sep 10,2019
# vlog -reportprogress 300 -work work C:/Users/Kpatel1/Desktop/Krupesh/microsemi/CoreAXI4Interconnect/trunk/rtl/Axi4Convertors/SlvClockDomainCrossing.v 
# -- Compiling module caxi4interconnect_SlvClockDomainCrossing
# 
# Top level modules:
# 	caxi4interconnect_SlvClockDomainCrossing
# End time: 10:01:17 on Sep 10,2019, Elapsed time: 0:00:00
# Errors: 0, Warnings: 0
# vlog -work work  "${PROJECT_DIR}/rtl/Axi4Convertors/MstrClockDomainCrossing.v"
# Model Technology ModelSim Microsemi vlog 10.7c Compiler 2018.10 Oct 15 2018
# Start time: 10:01:17 on Sep 10,2019
# vlog -reportprogress 300 -work work C:/Users/Kpatel1/Desktop/Krupesh/microsemi/CoreAXI4Interconnect/trunk/rtl/Axi4Convertors/MstrClockDomainCrossing.v 
# -- Compiling module caxi4interconnect_MstrClockDomainCrossing
# 
# Top level modules:
# 	caxi4interconnect_MstrClockDomainCrossing
# End time: 10:01:17 on Sep 10,2019, Elapsed time: 0:00:00
# Errors: 0, Warnings: 0
# 
# vlog -work work  "${PROJECT_DIR}/rtl/Axi4Convertors/DWC_brespCtrl.v"
# Model Technology ModelSim Microsemi vlog 10.7c Compiler 2018.10 Oct 15 2018
# Start time: 10:01:17 on Sep 10,2019
# vlog -reportprogress 300 -work work C:/Users/Kpatel1/Desktop/Krupesh/microsemi/CoreAXI4Interconnect/trunk/rtl/Axi4Convertors/DWC_brespCtrl.v 
# -- Compiling module caxi4interconnect_DWC_brespCtrl
# 
# Top level modules:
# 	caxi4interconnect_DWC_brespCtrl
# End time: 10:01:17 on Sep 10,2019, Elapsed time: 0:00:00
# Errors: 0, Warnings: 0
# vlog -work work  "${PROJECT_DIR}/rtl/Axi4Convertors/DWC_DownConv_CmdFifoWriteCtrl.v"
# Model Technology ModelSim Microsemi vlog 10.7c Compiler 2018.10 Oct 15 2018
# Start time: 10:01:17 on Sep 10,2019
# vlog -reportprogress 300 -work work C:/Users/Kpatel1/Desktop/Krupesh/microsemi/CoreAXI4Interconnect/trunk/rtl/Axi4Convertors/DWC_DownConv_CmdFifoWriteCtrl.v 
# -- Compiling module caxi4interconnect_DWC_DownConv_CmdFifoWriteCtrl
# 
# Top level modules:
# 	caxi4interconnect_DWC_DownConv_CmdFifoWriteCtrl
# End time: 10:01:17 on Sep 10,2019, Elapsed time: 0:00:00
# Errors: 0, Warnings: 0
# vlog -work work  "${PROJECT_DIR}/rtl/Axi4Convertors/DownConverter.v"
# Model Technology ModelSim Microsemi vlog 10.7c Compiler 2018.10 Oct 15 2018
# Start time: 10:01:17 on Sep 10,2019
# vlog -reportprogress 300 -work work C:/Users/Kpatel1/Desktop/Krupesh/microsemi/CoreAXI4Interconnect/trunk/rtl/Axi4Convertors/DownConverter.v 
# -- Compiling module caxi4interconnect_DownConverter
# 
# Top level modules:
# 	caxi4interconnect_DownConverter
# End time: 10:01:18 on Sep 10,2019, Elapsed time: 0:00:01
# Errors: 0, Warnings: 0
# vlog -work work  "${PROJECT_DIR}/rtl/Axi4Convertors/DWC_DownConv_readWidthConv.v"
# Model Technology ModelSim Microsemi vlog 10.7c Compiler 2018.10 Oct 15 2018
# Start time: 10:01:18 on Sep 10,2019
# vlog -reportprogress 300 -work work C:/Users/Kpatel1/Desktop/Krupesh/microsemi/CoreAXI4Interconnect/trunk/rtl/Axi4Convertors/DWC_DownConv_readWidthConv.v 
# -- Compiling module caxi4interconnect_DWC_DownConv_readWidthConv
# 
# Top level modules:
# 	caxi4interconnect_DWC_DownConv_readWidthConv
# End time: 10:01:18 on Sep 10,2019, Elapsed time: 0:00:00
# Errors: 0, Warnings: 0
# vlog -work work  "${PROJECT_DIR}/rtl/Axi4Convertors/DWC_DownConv_widthConvrd.v"
# Model Technology ModelSim Microsemi vlog 10.7c Compiler 2018.10 Oct 15 2018
# Start time: 10:01:18 on Sep 10,2019
# vlog -reportprogress 300 -work work C:/Users/Kpatel1/Desktop/Krupesh/microsemi/CoreAXI4Interconnect/trunk/rtl/Axi4Convertors/DWC_DownConv_widthConvrd.v 
# -- Compiling module caxi4interconnect_DWC_DownConv_widthConvrd
# 
# Top level modules:
# 	caxi4interconnect_DWC_DownConv_widthConvrd
# End time: 10:01:18 on Sep 10,2019, Elapsed time: 0:00:00
# Errors: 0, Warnings: 0
# vlog -work work  "${PROJECT_DIR}/rtl/Axi4Convertors/DWC_DownConv_widthConvwr.v"
# Model Technology ModelSim Microsemi vlog 10.7c Compiler 2018.10 Oct 15 2018
# Start time: 10:01:18 on Sep 10,2019
# vlog -reportprogress 300 -work work C:/Users/Kpatel1/Desktop/Krupesh/microsemi/CoreAXI4Interconnect/trunk/rtl/Axi4Convertors/DWC_DownConv_widthConvwr.v 
# -- Compiling module caxi4interconnect_DWC_DownConv_widthConvwr
# 
# Top level modules:
# 	caxi4interconnect_DWC_DownConv_widthConvwr
# End time: 10:01:18 on Sep 10,2019, Elapsed time: 0:00:00
# Errors: 0, Warnings: 0
# vlog -work work  "${PROJECT_DIR}/rtl/Axi4Convertors/DWC_DownConv_writeWidthConv.v"
# Model Technology ModelSim Microsemi vlog 10.7c Compiler 2018.10 Oct 15 2018
# Start time: 10:01:18 on Sep 10,2019
# vlog -reportprogress 300 -work work C:/Users/Kpatel1/Desktop/Krupesh/microsemi/CoreAXI4Interconnect/trunk/rtl/Axi4Convertors/DWC_DownConv_writeWidthConv.v 
# -- Compiling module caxi4interconnect_DWC_DownConv_writeWidthConv
# 
# Top level modules:
# 	caxi4interconnect_DWC_DownConv_writeWidthConv
# End time: 10:01:18 on Sep 10,2019, Elapsed time: 0:00:00
# Errors: 0, Warnings: 0
# 
##############################################################################
# Compile AHB Master model and files
##############################################################################
# vlog -work work  "${PROJECT_DIR}/sim/AHBModel/AHBL_Master.v"
# Model Technology ModelSim Microsemi vlog 10.7c Compiler 2018.10 Oct 15 2018
# Start time: 10:01:18 on Sep 10,2019
# vlog -reportprogress 300 -work work C:/Users/Kpatel1/Desktop/Krupesh/microsemi/CoreAXI4Interconnect/trunk/sim/AHBModel/AHBL_Master.v 
# -- Compiling module AHBL_Master
# 
# Top level modules:
# 	AHBL_Master
# End time: 10:01:18 on Sep 10,2019, Elapsed time: 0:00:00
# Errors: 0, Warnings: 0
# 
##############################################################################
# Compile testbench and AXI4Master and AXI4Slave models
##############################################################################
# vlog -work work +define+SIM_MODE=1 "${PROJECT_DIR}/sim/AXI4Models/Axi4SlaveGen.v"
# Model Technology ModelSim Microsemi vlog 10.7c Compiler 2018.10 Oct 15 2018
# Start time: 10:01:18 on Sep 10,2019
# vlog -reportprogress 300 -work work "+define+SIM_MODE=1" C:/Users/Kpatel1/Desktop/Krupesh/microsemi/CoreAXI4Interconnect/trunk/sim/AXI4Models/Axi4SlaveGen.v 
# -- Compiling module Axi4SlaveGen
# 
# Top level modules:
# 	Axi4SlaveGen
# End time: 10:01:18 on Sep 10,2019, Elapsed time: 0:00:00
# Errors: 0, Warnings: 0
# vlog -work work +define+SIM_MODE=1 "${PROJECT_DIR}/sim/AXI4Models/AxiMaster.v"
# Model Technology ModelSim Microsemi vlog 10.7c Compiler 2018.10 Oct 15 2018
# Start time: 10:01:19 on Sep 10,2019
# vlog -reportprogress 300 -work work "+define+SIM_MODE=1" C:/Users/Kpatel1/Desktop/Krupesh/microsemi/CoreAXI4Interconnect/trunk/sim/AXI4Models/AxiMaster.v 
# -- Compiling module AxiMaster
# 
# Top level modules:
# 	AxiMaster
# End time: 10:01:19 on Sep 10,2019, Elapsed time: 0:00:00
# Errors: 0, Warnings: 0
# vlog -work work +define+SIM_MODE=1 "${PROJECT_DIR}/sim/AXI4Models/Axi4MasterGen.v"
# Model Technology ModelSim Microsemi vlog 10.7c Compiler 2018.10 Oct 15 2018
# Start time: 10:01:19 on Sep 10,2019
# vlog -reportprogress 300 -work work "+define+SIM_MODE=1" C:/Users/Kpatel1/Desktop/Krupesh/microsemi/CoreAXI4Interconnect/trunk/sim/AXI4Models/Axi4MasterGen.v 
# -- Compiling module Axi4MasterGen
# 
# Top level modules:
# 	Axi4MasterGen
# End time: 10:01:19 on Sep 10,2019, Elapsed time: 0:00:00
# Errors: 0, Warnings: 0
# vlog -work work +define+SIM_MODE=1 "${PROJECT_DIR}/sim/AXI4Models/DualPort_Ram_SyncWr_ASyncRd.v"
# Model Technology ModelSim Microsemi vlog 10.7c Compiler 2018.10 Oct 15 2018
# Start time: 10:01:19 on Sep 10,2019
# vlog -reportprogress 300 -work work "+define+SIM_MODE=1" C:/Users/Kpatel1/Desktop/Krupesh/microsemi/CoreAXI4Interconnect/trunk/sim/AXI4Models/DualPort_Ram_SyncWr_ASyncRd.v 
# -- Compiling module caxi4interconnect_DualPort_RAM_SyncWr_ASyncRd
# 
# Top level modules:
# 	caxi4interconnect_DualPort_RAM_SyncWr_ASyncRd
# End time: 10:01:19 on Sep 10,2019, Elapsed time: 0:00:00
# Errors: 0, Warnings: 0
# 
# 
##############################################################################
# Compile user testbench
##############################################################################
# vlog -work work  "${PROJECT_DIR}/sim/User_Test.v"
# Model Technology ModelSim Microsemi vlog 10.7c Compiler 2018.10 Oct 15 2018
# Start time: 10:01:19 on Sep 10,2019
# vlog -reportprogress 300 -work work C:/Users/Kpatel1/Desktop/Krupesh/microsemi/CoreAXI4Interconnect/trunk/sim/User_Test.v 
# -- Compiling module testbench
# 
# Top level modules:
# 	testbench
# End time: 10:01:19 on Sep 10,2019, Elapsed time: 0:00:00
# Errors: 0, Warnings: 0
# 
# 
# 
##############################################################################
# Define log files for output from simulation runs
##############################################################################
# transcript file "${PROJECT_DIR}/sim/logs/TestAXI4Interconnect_User.log"		
# transcript on
# 
#############################################################################
# Load simulation and add waves
##############################################################################
# 
# vsim -L work -t 1ns work.testbench -gNUM_THREADS=1 -wlf waves.wlf
# vsim -L work -t 1ns work.testbench -wlf waves.wlf -gNUM_THREADS=1 
# Start time: 10:00:31 on Sep 10,2019
# Loading work.testbench
# Loading work.COREAXI4INTERCONNECT
# Loading work.caxi4interconnect_ResetSycnc
# Loading work.caxi4interconnect_Axi4CrossBar
# Loading work.Axi4SlaveGen
# Loading work.caxi4interconnect_FifoDualPort
# Loading work.caxi4interconnect_DualPort_RAM_SyncWr_ASyncRd
# Loading work.AHBL_Master
# Loading work.AxiMaster
# Loading work.Axi4MasterGen
# Loading work.caxi4interconnect_AddressController
# Loading work.caxi4interconnect_TargetMuxController
# Loading work.caxi4interconnect_RDataController
# Loading work.caxi4interconnect_WDataController
# Loading work.caxi4interconnect_RespController
# Loading work.caxi4interconnect_RoundRobinArb
# Loading work.caxi4interconnect_SlaveDataMuxController
# Loading work.caxi4interconnect_DERR_Slave
# Loading work.caxi4interconnect_revision
# Loading work.caxi4interconnect_MasterConvertor
# Loading work.caxi4interconnect_RegisterSlice
# Loading work.caxi4interconnect_MstrDataWidthConv
# Loading work.caxi4interconnect_MstrClockDomainCrossing
# Loading work.caxi4interconnect_SlaveConvertor
# Loading work.caxi4interconnect_SlvDataWidthConverter
# Loading work.caxi4interconnect_SlvProtocolConverter
# Loading work.caxi4interconnect_SlvClockDomainCrossing
# Loading work.caxi4interconnect_DualPort_RAM_SyncWr_SyncRd
# Loading work.caxi4interconnect_MasterControl
# Loading work.caxi4interconnect_DependenceChecker
# Loading work.caxi4interconnect_TransactionController
# Loading work.caxi4interconnect_BitScan0
# Loading work.caxi4interconnect_ReadDataController
# Loading work.caxi4interconnect_ReadDataMux
# Loading work.caxi4interconnect_WriteDataMux
# Loading work.caxi4interconnect_RegSliceFull
# Loading work.caxi4interconnect_DownConverter
# Loading work.caxi4interconnect_DWC_DownConv_writeWidthConv
# Loading work.caxi4interconnect_FIFO
# Loading work.caxi4interconnect_FIFO_CTRL
# Loading work.caxi4interconnect_DWC_DownConv_Hold_Reg_Wr
# Loading work.caxi4interconnect_Hold_Reg_Ctrl
# Loading work.caxi4interconnect_DWC_DownConv_widthConvwr
# Loading work.caxi4interconnect_DWC_DownConv_CmdFifoWriteCtrl
# Loading work.caxi4interconnect_DWC_DownConv_preCalcCmdFifoWrCtrl
# Loading work.caxi4interconnect_DWC_DownConv_readWidthConv
# Loading work.caxi4interconnect_CDC_FIFO
# Loading work.caxi4interconnect_RAM_BLOCK
# Loading work.caxi4interconnect_CDC_grayCodeCounter
# Loading work.caxi4interconnect_Bin2Gray
# Loading work.caxi4interconnect_CDC_wrCtrl
# Loading work.caxi4interconnect_CDC_rdCtrl
# Loading work.caxi4interconnect_MstrAHBtoAXI4Converter
# Loading work.caxi4interconnect_AHB_SM
# Loading work.caxi4interconnect_AHBL_Ctrl
# Loading work.caxi4interconnect_AXI4_Write_Ctrl
# Loading work.caxi4interconnect_AXI4_Read_Ctrl
# Loading work.caxi4interconnect_UpConverter
# Loading work.caxi4interconnect_DWC_UpConv_AChannel
# Loading work.caxi4interconnect_DWC_UpConv_preCalcAChannel
# Loading work.caxi4interconnect_DWC_UpConv_WChannel
# Loading work.caxi4interconnect_FIFO_upsizing
# Loading work.caxi4interconnect_DWC_UpConv_WChan_Hold_Reg
# Loading work.caxi4interconnect_DWC_UpConv_Wchan_WriteDataFifoCtrl
# Loading work.caxi4interconnect_DWC_UpConv_WChan_ReadDataFifoCtrl
# Loading work.caxi4interconnect_DWC_UpConv_BChannel
# Loading work.caxi4interconnect_DWC_UpConv_RChannel
# Loading work.caxi4interconnect_MstrProtocolConverter
# Loading work.caxi4interconnect_SlvAxi4ProtocolConv
# Loading work.caxi4interconnect_SlvAxi4ProtConvWrite
# Loading work.caxi4interconnect_SlvAxi4ProtConvRead
# Loading work.caxi4interconnect_SlvAxi4ProtConvAXI4ID
# Loading work.caxi4interconnect_MasterAddressDecoder
# Loading work.caxi4interconnect_RequestQual
# Loading work.caxi4interconnect_DualPort_FF_SyncWr_SyncRd
# Loading work.caxi4interconnect_DWC_brespCtrl
# Loading work.caxi4interconnect_DWC_DownConv_Hold_Reg_Rd
# Loading work.caxi4interconnect_DWC_DownConv_widthConvrd
# Loading work.caxi4interconnect_byte2bit
# Loading work.caxi4interconnect_FIFO_downsizing
# Loading work.caxi4interconnect_DWC_UpConv_RChan_Ctrl
# Loading work.caxi4interconnect_DWC_UpConv_preCalcRChan_Ctrl
# ** Warning: (vsim-2685) [TFMPC] - Too few port connections for 'uut'.  Expected 2418, found 1938.
#    Time: 0 ns  Iteration: 0  Instance: /testbench/uut File: C:/Users/Kpatel1/Desktop/Krupesh/microsemi/CoreAXI4Interconnect/trunk/sim/User_Test.v Line: 1777
# ** Warning: (vsim-3722) C:/Users/Kpatel1/Desktop/Krupesh/microsemi/CoreAXI4Interconnect/trunk/sim/User_Test.v(1777): [TFMPC] - Missing connection for port 'M_CLK8'.
# ** Warning: (vsim-3722) C:/Users/Kpatel1/Desktop/Krupesh/microsemi/CoreAXI4Interconnect/trunk/sim/User_Test.v(1777): [TFMPC] - Missing connection for port 'M_CLK9'.
# ** Warning: (vsim-3722) C:/Users/Kpatel1/Desktop/Krupesh/microsemi/CoreAXI4Interconnect/trunk/sim/User_Test.v(1777): [TFMPC] - Missing connection for port 'M_CLK10'.
# ** Warning: (vsim-3722) C:/Users/Kpatel1/Desktop/Krupesh/microsemi/CoreAXI4Interconnect/trunk/sim/User_Test.v(1777): [TFMPC] - Missing connection for port 'M_CLK11'.
# ** Warning: (vsim-3722) C:/Users/Kpatel1/Desktop/Krupesh/microsemi/CoreAXI4Interconnect/trunk/sim/User_Test.v(1777): [TFMPC] - Missing connection for port 'M_CLK12'.
# ** Warning: (vsim-3722) C:/Users/Kpatel1/Desktop/Krupesh/microsemi/CoreAXI4Interconnect/trunk/sim/User_Test.v(1777): [TFMPC] - Missing connection for port 'M_CLK13'.
# ** Warning: (vsim-3722) C:/Users/Kpatel1/Desktop/Krupesh/microsemi/CoreAXI4Interconnect/trunk/sim/User_Test.v(1777): [TFMPC] - Missing connection for port 'M_CLK14'.
# ** Warning: (vsim-3722) C:/Users/Kpatel1/Desktop/Krupesh/microsemi/CoreAXI4Interconnect/trunk/sim/User_Test.v(1777): [TFMPC] - Missing connection for port 'M_CLK15'.
# ** Warning: (vsim-3722) C:/Users/Kpatel1/Desktop/Krupesh/microsemi/CoreAXI4Interconnect/trunk/sim/User_Test.v(1777): [TFMPC] - Missing connection for port 'MASTER8_AWID'.
# ** Warning: (vsim-3722) C:/Users/Kpatel1/Desktop/Krupesh/microsemi/CoreAXI4Interconnect/trunk/sim/User_Test.v(1777): [TFMPC] - Missing connection for port 'MASTER8_AWADDR'.
# ** Warning: (vsim-3722) C:/Users/Kpatel1/Desktop/Krupesh/microsemi/CoreAXI4Interconnect/trunk/sim/User_Test.v(1777): [TFMPC] - Missing connection for port 'MASTER8_AWLEN'.
# ** Warning: (vsim-3722) C:/Users/Kpatel1/Desktop/Krupesh/microsemi/CoreAXI4Interconnect/trunk/sim/User_Test.v(1777): [TFMPC] - Missing connection for port 'MASTER8_AWSIZE'.
# ** Warning: (vsim-3722) C:/Users/Kpatel1/Desktop/Krupesh/microsemi/CoreAXI4Interconnect/trunk/sim/User_Test.v(1777): [TFMPC] - Missing connection for port 'MASTER8_AWBURST'.
# ** Warning: (vsim-3722) C:/Users/Kpatel1/Desktop/Krupesh/microsemi/CoreAXI4Interconnect/trunk/sim/User_Test.v(1777): [TFMPC] - Missing connection for port 'MASTER8_AWLOCK'.
# ** Warning: (vsim-3722) C:/Users/Kpatel1/Desktop/Krupesh/microsemi/CoreAXI4Interconnect/trunk/sim/User_Test.v(1777): [TFMPC] - Missing connection for port 'MASTER8_AWCACHE'.
# ** Warning: (vsim-3722) C:/Users/Kpatel1/Desktop/Krupesh/microsemi/CoreAXI4Interconnect/trunk/sim/User_Test.v(1777): [TFMPC] - Missing connection for port 'MASTER8_AWPROT'.
# ** Warning: (vsim-3722) C:/Users/Kpatel1/Desktop/Krupesh/microsemi/CoreAXI4Interconnect/trunk/sim/User_Test.v(1777): [TFMPC] - Missing connection for port 'MASTER8_AWREGION'.
# ** Warning: (vsim-3722) C:/Users/Kpatel1/Desktop/Krupesh/microsemi/CoreAXI4Interconnect/trunk/sim/User_Test.v(1777): [TFMPC] - Missing connection for port 'MASTER8_AWQOS'.
# ** Warning: (vsim-3722) C:/Users/Kpatel1/Desktop/Krupesh/microsemi/CoreAXI4Interconnect/trunk/sim/User_Test.v(1777): [TFMPC] - Missing connection for port 'MASTER8_AWUSER'.
# ** Warning: (vsim-3722) C:/Users/Kpatel1/Desktop/Krupesh/microsemi/CoreAXI4Interconnect/trunk/sim/User_Test.v(1777): [TFMPC] - Missing connection for port 'MASTER8_AWVALID'.
# ** Warning: (vsim-3722) C:/Users/Kpatel1/Desktop/Krupesh/microsemi/CoreAXI4Interconnect/trunk/sim/User_Test.v(1777): [TFMPC] - Missing connection for port 'MASTER8_AWREADY'.
# ** Warning: (vsim-3722) C:/Users/Kpatel1/Desktop/Krupesh/microsemi/CoreAXI4Interconnect/trunk/sim/User_Test.v(1777): [TFMPC] - Missing connection for port 'MASTER9_AWID'.
# ** Warning: (vsim-3722) C:/Users/Kpatel1/Desktop/Krupesh/microsemi/CoreAXI4Interconnect/trunk/sim/User_Test.v(1777): [TFMPC] - Missing connection for port 'MASTER9_AWADDR'.
# ** Warning: (vsim-3722) C:/Users/Kpatel1/Desktop/Krupesh/microsemi/CoreAXI4Interconnect/trunk/sim/User_Test.v(1777): [TFMPC] - Missing connection for port 'MASTER9_AWLEN'.
# ** Warning: (vsim-3722) C:/Users/Kpatel1/Desktop/Krupesh/microsemi/CoreAXI4Interconnect/trunk/sim/User_Test.v(1777): [TFMPC] - Missing connection for port 'MASTER9_AWSIZE'.
# ** Warning: (vsim-3722) C:/Users/Kpatel1/Desktop/Krupesh/microsemi/CoreAXI4Interconnect/trunk/sim/User_Test.v(1777): [TFMPC] - Missing connection for port 'MASTER9_AWBURST'.
# ** Warning: (vsim-3722) C:/Users/Kpatel1/Desktop/Krupesh/microsemi/CoreAXI4Interconnect/trunk/sim/User_Test.v(1777): [TFMPC] - Missing connection for port 'MASTER9_AWLOCK'.
# ** Warning: (vsim-3722) C:/Users/Kpatel1/Desktop/Krupesh/microsemi/CoreAXI4Interconnect/trunk/sim/User_Test.v(1777): [TFMPC] - Missing connection for port 'MASTER9_AWCACHE'.
# ** Warning: (vsim-3722) C:/Users/Kpatel1/Desktop/Krupesh/microsemi/CoreAXI4Interconnect/trunk/sim/User_Test.v(1777): [TFMPC] - Missing connection for port 'MASTER9_AWPROT'.
# ** Warning: (vsim-3722) C:/Users/Kpatel1/Desktop/Krupesh/microsemi/CoreAXI4Interconnect/trunk/sim/User_Test.v(1777): [TFMPC] - Missing connection for port 'MASTER9_AWREGION'.
# ** Warning: (vsim-3722) C:/Users/Kpatel1/Desktop/Krupesh/microsemi/CoreAXI4Interconnect/trunk/sim/User_Test.v(1777): [TFMPC] - Missing connection for port 'MASTER9_AWQOS'.
# ** Warning: (vsim-3722) C:/Users/Kpatel1/Desktop/Krupesh/microsemi/CoreAXI4Interconnect/trunk/sim/User_Test.v(1777): [TFMPC] - Missing connection for port 'MASTER9_AWUSER'.
# ** Warning: (vsim-3722) C:/Users/Kpatel1/Desktop/Krupesh/microsemi/CoreAXI4Interconnect/trunk/sim/User_Test.v(1777): [TFMPC] - Missing connection for port 'MASTER9_AWVALID'.
# ** Warning: (vsim-3722) C:/Users/Kpatel1/Desktop/Krupesh/microsemi/CoreAXI4Interconnect/trunk/sim/User_Test.v(1777): [TFMPC] - Missing connection for port 'MASTER9_AWREADY'.
# ** Warning: (vsim-3722) C:/Users/Kpatel1/Desktop/Krupesh/microsemi/CoreAXI4Interconnect/trunk/sim/User_Test.v(1777): [TFMPC] - Missing connection for port 'MASTER10_AWID'.
# ** Warning: (vsim-3722) C:/Users/Kpatel1/Desktop/Krupesh/microsemi/CoreAXI4Interconnect/trunk/sim/User_Test.v(1777): [TFMPC] - Missing connection for port 'MASTER10_AWADDR'.
# ** Warning: (vsim-3722) C:/Users/Kpatel1/Desktop/Krupesh/microsemi/CoreAXI4Interconnect/trunk/sim/User_Test.v(1777): [TFMPC] - Missing connection for port 'MASTER10_AWLEN'.
# ** Warning: (vsim-3722) C:/Users/Kpatel1/Desktop/Krupesh/microsemi/CoreAXI4Interconnect/trunk/sim/User_Test.v(1777): [TFMPC] - Missing connection for port 'MASTER10_AWSIZE'.
# ** Warning: (vsim-3722) C:/Users/Kpatel1/Desktop/Krupesh/microsemi/CoreAXI4Interconnect/trunk/sim/User_Test.v(1777): [TFMPC] - Missing connection for port 'MASTER10_AWBURST'.
# ** Warning: (vsim-3722) C:/Users/Kpatel1/Desktop/Krupesh/microsemi/CoreAXI4Interconnect/trunk/sim/User_Test.v(1777): [TFMPC] - Missing connection for port 'MASTER10_AWLOCK'.
# ** Warning: (vsim-3722) C:/Users/Kpatel1/Desktop/Krupesh/microsemi/CoreAXI4Interconnect/trunk/sim/User_Test.v(1777): [TFMPC] - Missing connection for port 'MASTER10_AWCACHE'.
# ** Warning: (vsim-3722) C:/Users/Kpatel1/Desktop/Krupesh/microsemi/CoreAXI4Interconnect/trunk/sim/User_Test.v(1777): [TFMPC] - Missing connection for port 'MASTER10_AWPROT'.
# ** Warning: (vsim-3722) C:/Users/Kpatel1/Desktop/Krupesh/microsemi/CoreAXI4Interconnect/trunk/sim/User_Test.v(1777): [TFMPC] - Missing connection for port 'MASTER10_AWREGION'.
# ** Warning: (vsim-3722) C:/Users/Kpatel1/Desktop/Krupesh/microsemi/CoreAXI4Interconnect/trunk/sim/User_Test.v(1777): [TFMPC] - Missing connection for port 'MASTER10_AWQOS'.
# ** Warning: (vsim-3722) C:/Users/Kpatel1/Desktop/Krupesh/microsemi/CoreAXI4Interconnect/trunk/sim/User_Test.v(1777): [TFMPC] - Missing connection for port 'MASTER10_AWUSER'.
# ** Warning: (vsim-3722) C:/Users/Kpatel1/Desktop/Krupesh/microsemi/CoreAXI4Interconnect/trunk/sim/User_Test.v(1777): [TFMPC] - Missing connection for port 'MASTER10_AWVALID'.
# ** Warning: (vsim-3722) C:/Users/Kpatel1/Desktop/Krupesh/microsemi/CoreAXI4Interconnect/trunk/sim/User_Test.v(1777): [TFMPC] - Missing connection for port 'MASTER10_AWREADY'.
# ** Warning: (vsim-3722) C:/Users/Kpatel1/Desktop/Krupesh/microsemi/CoreAXI4Interconnect/trunk/sim/User_Test.v(1777): [TFMPC] - Missing connection for port 'MASTER11_AWID'.
# ** Warning: (vsim-3722) C:/Users/Kpatel1/Desktop/Krupesh/microsemi/CoreAXI4Interconnect/trunk/sim/User_Test.v(1777): [TFMPC] - Missing connection for port 'MASTER11_AWADDR'.
# ** Warning: (vsim-3722) C:/Users/Kpatel1/Desktop/Krupesh/microsemi/CoreAXI4Interconnect/trunk/sim/User_Test.v(1777): [TFMPC] - Missing connection for port 'MASTER11_AWLEN'.
# ** Warning: (vsim-3722) C:/Users/Kpatel1/Desktop/Krupesh/microsemi/CoreAXI4Interconnect/trunk/sim/User_Test.v(1777): [TFMPC] - Missing connection for port 'MASTER11_AWSIZE'.
# ** Warning: (vsim-3722) C:/Users/Kpatel1/Desktop/Krupesh/microsemi/CoreAXI4Interconnect/trunk/sim/User_Test.v(1777): [TFMPC] - Missing connection for port 'MASTER11_AWBURST'.
# ** Warning: (vsim-3722) C:/Users/Kpatel1/Desktop/Krupesh/microsemi/CoreAXI4Interconnect/trunk/sim/User_Test.v(1777): [TFMPC] - Missing connection for port 'MASTER11_AWLOCK'.
# ** Warning: (vsim-3722) C:/Users/Kpatel1/Desktop/Krupesh/microsemi/CoreAXI4Interconnect/trunk/sim/User_Test.v(1777): [TFMPC] - Missing connection for port 'MASTER11_AWCACHE'.
# ** Warning: (vsim-3722) C:/Users/Kpatel1/Desktop/Krupesh/microsemi/CoreAXI4Interconnect/trunk/sim/User_Test.v(1777): [TFMPC] - Missing connection for port 'MASTER11_AWPROT'.
# ** Warning: (vsim-3722) C:/Users/Kpatel1/Desktop/Krupesh/microsemi/CoreAXI4Interconnect/trunk/sim/User_Test.v(1777): [TFMPC] - Missing connection for port 'MASTER11_AWREGION'.
# ** Warning: (vsim-3722) C:/Users/Kpatel1/Desktop/Krupesh/microsemi/CoreAXI4Interconnect/trunk/sim/User_Test.v(1777): [TFMPC] - Missing connection for port 'MASTER11_AWQOS'.
# ** Warning: (vsim-3722) C:/Users/Kpatel1/Desktop/Krupesh/microsemi/CoreAXI4Interconnect/trunk/sim/User_Test.v(1777): [TFMPC] - Missing connection for port 'MASTER11_AWUSER'.
# ** Warning: (vsim-3722) C:/Users/Kpatel1/Desktop/Krupesh/microsemi/CoreAXI4Interconnect/trunk/sim/User_Test.v(1777): [TFMPC] - Missing connection for port 'MASTER11_AWVALID'.
# ** Warning: (vsim-3722) C:/Users/Kpatel1/Desktop/Krupesh/microsemi/CoreAXI4Interconnect/trunk/sim/User_Test.v(1777): [TFMPC] - Missing connection for port 'MASTER11_AWREADY'.
# ** Warning: (vsim-3722) C:/Users/Kpatel1/Desktop/Krupesh/microsemi/CoreAXI4Interconnect/trunk/sim/User_Test.v(1777): [TFMPC] - Missing connection for port 'MASTER12_AWID'.
# ** Warning: (vsim-3722) C:/Users/Kpatel1/Desktop/Krupesh/microsemi/CoreAXI4Interconnect/trunk/sim/User_Test.v(1777): [TFMPC] - Missing connection for port 'MASTER12_AWADDR'.
# ** Warning: (vsim-3722) C:/Users/Kpatel1/Desktop/Krupesh/microsemi/CoreAXI4Interconnect/trunk/sim/User_Test.v(1777): [TFMPC] - Missing connection for port 'MASTER12_AWLEN'.
# ** Warning: (vsim-3722) C:/Users/Kpatel1/Desktop/Krupesh/microsemi/CoreAXI4Interconnect/trunk/sim/User_Test.v(1777): [TFMPC] - Missing connection for port 'MASTER12_AWSIZE'.
# ** Warning: (vsim-3722) C:/Users/Kpatel1/Desktop/Krupesh/microsemi/CoreAXI4Interconnect/trunk/sim/User_Test.v(1777): [TFMPC] - Missing connection for port 'MASTER12_AWBURST'.
# ** Warning: (vsim-3722) C:/Users/Kpatel1/Desktop/Krupesh/microsemi/CoreAXI4Interconnect/trunk/sim/User_Test.v(1777): [TFMPC] - Missing connection for port 'MASTER12_AWLOCK'.
# ** Warning: (vsim-3722) C:/Users/Kpatel1/Desktop/Krupesh/microsemi/CoreAXI4Interconnect/trunk/sim/User_Test.v(1777): [TFMPC] - Missing connection for port 'MASTER12_AWCACHE'.
# ** Warning: (vsim-3722) C:/Users/Kpatel1/Desktop/Krupesh/microsemi/CoreAXI4Interconnect/trunk/sim/User_Test.v(1777): [TFMPC] - Missing connection for port 'MASTER12_AWPROT'.
# ** Warning: (vsim-3722) C:/Users/Kpatel1/Desktop/Krupesh/microsemi/CoreAXI4Interconnect/trunk/sim/User_Test.v(1777): [TFMPC] - Missing connection for port 'MASTER12_AWREGION'.
# ** Warning: (vsim-3722) C:/Users/Kpatel1/Desktop/Krupesh/microsemi/CoreAXI4Interconnect/trunk/sim/User_Test.v(1777): [TFMPC] - Missing connection for port 'MASTER12_AWQOS'.
# ** Warning: (vsim-3722) C:/Users/Kpatel1/Desktop/Krupesh/microsemi/CoreAXI4Interconnect/trunk/sim/User_Test.v(1777): [TFMPC] - Missing connection for port 'MASTER12_AWUSER'.
# ** Warning: (vsim-3722) C:/Users/Kpatel1/Desktop/Krupesh/microsemi/CoreAXI4Interconnect/trunk/sim/User_Test.v(1777): [TFMPC] - Missing connection for port 'MASTER12_AWVALID'.
# ** Warning: (vsim-3722) C:/Users/Kpatel1/Desktop/Krupesh/microsemi/CoreAXI4Interconnect/trunk/sim/User_Test.v(1777): [TFMPC] - Missing connection for port 'MASTER12_AWREADY'.
# ** Warning: (vsim-3722) C:/Users/Kpatel1/Desktop/Krupesh/microsemi/CoreAXI4Interconnect/trunk/sim/User_Test.v(1777): [TFMPC] - Missing connection for port 'MASTER13_AWID'.
# ** Warning: (vsim-3722) C:/Users/Kpatel1/Desktop/Krupesh/microsemi/CoreAXI4Interconnect/trunk/sim/User_Test.v(1777): [TFMPC] - Missing connection for port 'MASTER13_AWADDR'.
# ** Warning: (vsim-3722) C:/Users/Kpatel1/Desktop/Krupesh/microsemi/CoreAXI4Interconnect/trunk/sim/User_Test.v(1777): [TFMPC] - Missing connection for port 'MASTER13_AWLEN'.
# ** Warning: (vsim-3722) C:/Users/Kpatel1/Desktop/Krupesh/microsemi/CoreAXI4Interconnect/trunk/sim/User_Test.v(1777): [TFMPC] - Missing connection for port 'MASTER13_AWSIZE'.
# ** Warning: (vsim-3722) C:/Users/Kpatel1/Desktop/Krupesh/microsemi/CoreAXI4Interconnect/trunk/sim/User_Test.v(1777): [TFMPC] - Missing connection for port 'MASTER13_AWBURST'.
# ** Warning: (vsim-3722) C:/Users/Kpatel1/Desktop/Krupesh/microsemi/CoreAXI4Interconnect/trunk/sim/User_Test.v(1777): [TFMPC] - Missing connection for port 'MASTER13_AWLOCK'.
# ** Warning: (vsim-3722) C:/Users/Kpatel1/Desktop/Krupesh/microsemi/CoreAXI4Interconnect/trunk/sim/User_Test.v(1777): [TFMPC] - Missing connection for port 'MASTER13_AWCACHE'.
# ** Warning: (vsim-3722) C:/Users/Kpatel1/Desktop/Krupesh/microsemi/CoreAXI4Interconnect/trunk/sim/User_Test.v(1777): [TFMPC] - Missing connection for port 'MASTER13_AWPROT'.
# ** Warning: (vsim-3722) C:/Users/Kpatel1/Desktop/Krupesh/microsemi/CoreAXI4Interconnect/trunk/sim/User_Test.v(1777): [TFMPC] - Missing connection for port 'MASTER13_AWREGION'.
# ** Warning: (vsim-3722) C:/Users/Kpatel1/Desktop/Krupesh/microsemi/CoreAXI4Interconnect/trunk/sim/User_Test.v(1777): [TFMPC] - Missing connection for port 'MASTER13_AWQOS'.
# ** Warning: (vsim-3722) C:/Users/Kpatel1/Desktop/Krupesh/microsemi/CoreAXI4Interconnect/trunk/sim/User_Test.v(1777): [TFMPC] - Missing connection for port 'MASTER13_AWUSER'.
# ** Warning: (vsim-3722) C:/Users/Kpatel1/Desktop/Krupesh/microsemi/CoreAXI4Interconnect/trunk/sim/User_Test.v(1777): [TFMPC] - Missing connection for port 'MASTER13_AWVALID'.
# ** Warning: (vsim-3722) C:/Users/Kpatel1/Desktop/Krupesh/microsemi/CoreAXI4Interconnect/trunk/sim/User_Test.v(1777): [TFMPC] - Missing connection for port 'MASTER13_AWREADY'.
# ** Warning: (vsim-3722) C:/Users/Kpatel1/Desktop/Krupesh/microsemi/CoreAXI4Interconnect/trunk/sim/User_Test.v(1777): [TFMPC] - Missing connection for port 'MASTER14_AWID'.
# ** Warning: (vsim-3722) C:/Users/Kpatel1/Desktop/Krupesh/microsemi/CoreAXI4Interconnect/trunk/sim/User_Test.v(1777): [TFMPC] - Missing connection for port 'MASTER14_AWADDR'.
# ** Warning: (vsim-3722) C:/Users/Kpatel1/Desktop/Krupesh/microsemi/CoreAXI4Interconnect/trunk/sim/User_Test.v(1777): [TFMPC] - Missing connection for port 'MASTER14_AWLEN'.
# ** Warning: (vsim-3722) C:/Users/Kpatel1/Desktop/Krupesh/microsemi/CoreAXI4Interconnect/trunk/sim/User_Test.v(1777): [TFMPC] - Missing connection for port 'MASTER14_AWSIZE'.
# ** Warning: (vsim-3722) C:/Users/Kpatel1/Desktop/Krupesh/microsemi/CoreAXI4Interconnect/trunk/sim/User_Test.v(1777): [TFMPC] - Missing connection for port 'MASTER14_AWBURST'.
# ** Warning: (vsim-3722) C:/Users/Kpatel1/Desktop/Krupesh/microsemi/CoreAXI4Interconnect/trunk/sim/User_Test.v(1777): [TFMPC] - Missing connection for port 'MASTER14_AWLOCK'.
# ** Warning: (vsim-3722) C:/Users/Kpatel1/Desktop/Krupesh/microsemi/CoreAXI4Interconnect/trunk/sim/User_Test.v(1777): [TFMPC] - Missing connection for port 'MASTER14_AWCACHE'.
# ** Warning: (vsim-3722) C:/Users/Kpatel1/Desktop/Krupesh/microsemi/CoreAXI4Interconnect/trunk/sim/User_Test.v(1777): [TFMPC] - Missing connection for port 'MASTER14_AWPROT'.
# ** Warning: (vsim-3722) C:/Users/Kpatel1/Desktop/Krupesh/microsemi/CoreAXI4Interconnect/trunk/sim/User_Test.v(1777): [TFMPC] - Missing connection for port 'MASTER14_AWREGION'.
# ** Warning: (vsim-3722) C:/Users/Kpatel1/Desktop/Krupesh/microsemi/CoreAXI4Interconnect/trunk/sim/User_Test.v(1777): [TFMPC] - Missing connection for port 'MASTER14_AWQOS'.
# ** Warning: (vsim-3722) C:/Users/Kpatel1/Desktop/Krupesh/microsemi/CoreAXI4Interconnect/trunk/sim/User_Test.v(1777): [TFMPC] - Missing connection for port 'MASTER14_AWUSER'.
# ** Warning: (vsim-3722) C:/Users/Kpatel1/Desktop/Krupesh/microsemi/CoreAXI4Interconnect/trunk/sim/User_Test.v(1777): [TFMPC] - Missing connection for port 'MASTER14_AWVALID'.
# ** Warning: (vsim-3722) C:/Users/Kpatel1/Desktop/Krupesh/microsemi/CoreAXI4Interconnect/trunk/sim/User_Test.v(1777): [TFMPC] - Missing connection for port 'MASTER14_AWREADY'.
# ** Warning: (vsim-3722) C:/Users/Kpatel1/Desktop/Krupesh/microsemi/CoreAXI4Interconnect/trunk/sim/User_Test.v(1777): [TFMPC] - Missing connection for port 'MASTER15_AWID'.
# ** Warning: (vsim-3722) C:/Users/Kpatel1/Desktop/Krupesh/microsemi/CoreAXI4Interconnect/trunk/sim/User_Test.v(1777): [TFMPC] - Missing connection for port 'MASTER15_AWADDR'.
# ** Warning: (vsim-3722) C:/Users/Kpatel1/Desktop/Krupesh/microsemi/CoreAXI4Interconnect/trunk/sim/User_Test.v(1777): [TFMPC] - Missing connection for port 'MASTER15_AWLEN'.
# ** Warning: (vsim-3722) C:/Users/Kpatel1/Desktop/Krupesh/microsemi/CoreAXI4Interconnect/trunk/sim/User_Test.v(1777): [TFMPC] - Missing connection for port 'MASTER15_AWSIZE'.
# ** Warning: (vsim-3722) C:/Users/Kpatel1/Desktop/Krupesh/microsemi/CoreAXI4Interconnect/trunk/sim/User_Test.v(1777): [TFMPC] - Missing connection for port 'MASTER15_AWBURST'.
# ** Warning: (vsim-3722) C:/Users/Kpatel1/Desktop/Krupesh/microsemi/CoreAXI4Interconnect/trunk/sim/User_Test.v(1777): [TFMPC] - Missing connection for port 'MASTER15_AWLOCK'.
# ** Warning: (vsim-3722) C:/Users/Kpatel1/Desktop/Krupesh/microsemi/CoreAXI4Interconnect/trunk/sim/User_Test.v(1777): [TFMPC] - Missing connection for port 'MASTER15_AWCACHE'.
# ** Warning: (vsim-3722) C:/Users/Kpatel1/Desktop/Krupesh/microsemi/CoreAXI4Interconnect/trunk/sim/User_Test.v(1777): [TFMPC] - Missing connection for port 'MASTER15_AWPROT'.
# ** Warning: (vsim-3722) C:/Users/Kpatel1/Desktop/Krupesh/microsemi/CoreAXI4Interconnect/trunk/sim/User_Test.v(1777): [TFMPC] - Missing connection for port 'MASTER15_AWREGION'.
# ** Warning: (vsim-3722) C:/Users/Kpatel1/Desktop/Krupesh/microsemi/CoreAXI4Interconnect/trunk/sim/User_Test.v(1777): [TFMPC] - Missing connection for port 'MASTER15_AWQOS'.
# ** Warning: (vsim-3722) C:/Users/Kpatel1/Desktop/Krupesh/microsemi/CoreAXI4Interconnect/trunk/sim/User_Test.v(1777): [TFMPC] - Missing connection for port 'MASTER15_AWUSER'.
# ** Warning: (vsim-3722) C:/Users/Kpatel1/Desktop/Krupesh/microsemi/CoreAXI4Interconnect/trunk/sim/User_Test.v(1777): [TFMPC] - Missing connection for port 'MASTER15_AWVALID'.
# ** Warning: (vsim-3722) C:/Users/Kpatel1/Desktop/Krupesh/microsemi/CoreAXI4Interconnect/trunk/sim/User_Test.v(1777): [TFMPC] - Missing connection for port 'MASTER15_AWREADY'.
# ** Warning: (vsim-3722) C:/Users/Kpatel1/Desktop/Krupesh/microsemi/CoreAXI4Interconnect/trunk/sim/User_Test.v(1777): [TFMPC] - Missing connection for port 'MASTER0_WID'.
# ** Warning: (vsim-3722) C:/Users/Kpatel1/Desktop/Krupesh/microsemi/CoreAXI4Interconnect/trunk/sim/User_Test.v(1777): [TFMPC] - Missing connection for port 'MASTER1_WID'.
# ** Warning: (vsim-3722) C:/Users/Kpatel1/Desktop/Krupesh/microsemi/CoreAXI4Interconnect/trunk/sim/User_Test.v(1777): [TFMPC] - Missing connection for port 'MASTER2_WID'.
# ** Warning: (vsim-3722) C:/Users/Kpatel1/Desktop/Krupesh/microsemi/CoreAXI4Interconnect/trunk/sim/User_Test.v(1777): [TFMPC] - Missing connection for port 'MASTER3_WID'.
# ** Warning: (vsim-3722) C:/Users/Kpatel1/Desktop/Krupesh/microsemi/CoreAXI4Interconnect/trunk/sim/User_Test.v(1777): [TFMPC] - Missing connection for port 'MASTER4_WID'.
# ** Warning: (vsim-3722) C:/Users/Kpatel1/Desktop/Krupesh/microsemi/CoreAXI4Interconnect/trunk/sim/User_Test.v(1777): [TFMPC] - Missing connection for port 'MASTER5_WID'.
# ** Warning: (vsim-3722) C:/Users/Kpatel1/Desktop/Krupesh/microsemi/CoreAXI4Interconnect/trunk/sim/User_Test.v(1777): [TFMPC] - Missing connection for port 'MASTER6_WID'.
# ** Warning: (vsim-3722) C:/Users/Kpatel1/Desktop/Krupesh/microsemi/CoreAXI4Interconnect/trunk/sim/User_Test.v(1777): [TFMPC] - Missing connection for port 'MASTER7_WID'.
# ** Warning: (vsim-3722) C:/Users/Kpatel1/Desktop/Krupesh/microsemi/CoreAXI4Interconnect/trunk/sim/User_Test.v(1777): [TFMPC] - Missing connection for port 'MASTER8_WID'.
# ** Warning: (vsim-3722) C:/Users/Kpatel1/Desktop/Krupesh/microsemi/CoreAXI4Interconnect/trunk/sim/User_Test.v(1777): [TFMPC] - Missing connection for port 'MASTER8_WDATA'.
# ** Warning: (vsim-3722) C:/Users/Kpatel1/Desktop/Krupesh/microsemi/CoreAXI4Interconnect/trunk/sim/User_Test.v(1777): [TFMPC] - Missing connection for port 'MASTER8_WSTRB'.
# ** Warning: (vsim-3722) C:/Users/Kpatel1/Desktop/Krupesh/microsemi/CoreAXI4Interconnect/trunk/sim/User_Test.v(1777): [TFMPC] - Missing connection for port 'MASTER8_WLAST'.
# ** Warning: (vsim-3722) C:/Users/Kpatel1/Desktop/Krupesh/microsemi/CoreAXI4Interconnect/trunk/sim/User_Test.v(1777): [TFMPC] - Missing connection for port 'MASTER8_WUSER'.
# ** Warning: (vsim-3722) C:/Users/Kpatel1/Desktop/Krupesh/microsemi/CoreAXI4Interconnect/trunk/sim/User_Test.v(1777): [TFMPC] - Missing connection for port 'MASTER8_WVALID'.
# ** Warning: (vsim-3722) C:/Users/Kpatel1/Desktop/Krupesh/microsemi/CoreAXI4Interconnect/trunk/sim/User_Test.v(1777): [TFMPC] - Missing connection for port 'MASTER8_WREADY'.
# ** Warning: (vsim-3722) C:/Users/Kpatel1/Desktop/Krupesh/microsemi/CoreAXI4Interconnect/trunk/sim/User_Test.v(1777): [TFMPC] - Missing connection for port 'MASTER9_WID'.
# ** Warning: (vsim-3722) C:/Users/Kpatel1/Desktop/Krupesh/microsemi/CoreAXI4Interconnect/trunk/sim/User_Test.v(1777): [TFMPC] - Missing connection for port 'MASTER9_WDATA'.
# ** Warning: (vsim-3722) C:/Users/Kpatel1/Desktop/Krupesh/microsemi/CoreAXI4Interconnect/trunk/sim/User_Test.v(1777): [TFMPC] - Missing connection for port 'MASTER9_WSTRB'.
# ** Warning: (vsim-3722) C:/Users/Kpatel1/Desktop/Krupesh/microsemi/CoreAXI4Interconnect/trunk/sim/User_Test.v(1777): [TFMPC] - Missing connection for port 'MASTER9_WLAST'.
# ** Warning: (vsim-3722) C:/Users/Kpatel1/Desktop/Krupesh/microsemi/CoreAXI4Interconnect/trunk/sim/User_Test.v(1777): [TFMPC] - Missing connection for port 'MASTER9_WUSER'.
# ** Warning: (vsim-3722) C:/Users/Kpatel1/Desktop/Krupesh/microsemi/CoreAXI4Interconnect/trunk/sim/User_Test.v(1777): [TFMPC] - Missing connection for port 'MASTER9_WVALID'.
# ** Warning: (vsim-3722) C:/Users/Kpatel1/Desktop/Krupesh/microsemi/CoreAXI4Interconnect/trunk/sim/User_Test.v(1777): [TFMPC] - Missing connection for port 'MASTER9_WREADY'.
# ** Warning: (vsim-3722) C:/Users/Kpatel1/Desktop/Krupesh/microsemi/CoreAXI4Interconnect/trunk/sim/User_Test.v(1777): [TFMPC] - Missing connection for port 'MASTER10_WID'.
# ** Warning: (vsim-3722) C:/Users/Kpatel1/Desktop/Krupesh/microsemi/CoreAXI4Interconnect/trunk/sim/User_Test.v(1777): [TFMPC] - Missing connection for port 'MASTER10_WDATA'.
# ** Warning: (vsim-3722) C:/Users/Kpatel1/Desktop/Krupesh/microsemi/CoreAXI4Interconnect/trunk/sim/User_Test.v(1777): [TFMPC] - Missing connection for port 'MASTER10_WSTRB'.
# ** Warning: (vsim-3722) C:/Users/Kpatel1/Desktop/Krupesh/microsemi/CoreAXI4Interconnect/trunk/sim/User_Test.v(1777): [TFMPC] - Missing connection for port 'MASTER10_WLAST'.
# ** Warning: (vsim-3722) C:/Users/Kpatel1/Desktop/Krupesh/microsemi/CoreAXI4Interconnect/trunk/sim/User_Test.v(1777): [TFMPC] - Missing connection for port 'MASTER10_WUSER'.
# ** Warning: (vsim-3722) C:/Users/Kpatel1/Desktop/Krupesh/microsemi/CoreAXI4Interconnect/trunk/sim/User_Test.v(1777): [TFMPC] - Missing connection for port 'MASTER10_WVALID'.
# ** Warning: (vsim-3722) C:/Users/Kpatel1/Desktop/Krupesh/microsemi/CoreAXI4Interconnect/trunk/sim/User_Test.v(1777): [TFMPC] - Missing connection for port 'MASTER10_WREADY'.
# ** Warning: (vsim-3722) C:/Users/Kpatel1/Desktop/Krupesh/microsemi/CoreAXI4Interconnect/trunk/sim/User_Test.v(1777): [TFMPC] - Missing connection for port 'MASTER11_WID'.
# ** Warning: (vsim-3722) C:/Users/Kpatel1/Desktop/Krupesh/microsemi/CoreAXI4Interconnect/trunk/sim/User_Test.v(1777): [TFMPC] - Missing connection for port 'MASTER11_WDATA'.
# ** Warning: (vsim-3722) C:/Users/Kpatel1/Desktop/Krupesh/microsemi/CoreAXI4Interconnect/trunk/sim/User_Test.v(1777): [TFMPC] - Missing connection for port 'MASTER11_WSTRB'.
# ** Warning: (vsim-3722) C:/Users/Kpatel1/Desktop/Krupesh/microsemi/CoreAXI4Interconnect/trunk/sim/User_Test.v(1777): [TFMPC] - Missing connection for port 'MASTER11_WLAST'.
# ** Warning: (vsim-3722) C:/Users/Kpatel1/Desktop/Krupesh/microsemi/CoreAXI4Interconnect/trunk/sim/User_Test.v(1777): [TFMPC] - Missing connection for port 'MASTER11_WUSER'.
# ** Warning: (vsim-3722) C:/Users/Kpatel1/Desktop/Krupesh/microsemi/CoreAXI4Interconnect/trunk/sim/User_Test.v(1777): [TFMPC] - Missing connection for port 'MASTER11_WVALID'.
# ** Warning: (vsim-3722) C:/Users/Kpatel1/Desktop/Krupesh/microsemi/CoreAXI4Interconnect/trunk/sim/User_Test.v(1777): [TFMPC] - Missing connection for port 'MASTER11_WREADY'.
# ** Warning: (vsim-3722) C:/Users/Kpatel1/Desktop/Krupesh/microsemi/CoreAXI4Interconnect/trunk/sim/User_Test.v(1777): [TFMPC] - Missing connection for port 'MASTER12_WID'.
# ** Warning: (vsim-3722) C:/Users/Kpatel1/Desktop/Krupesh/microsemi/CoreAXI4Interconnect/trunk/sim/User_Test.v(1777): [TFMPC] - Missing connection for port 'MASTER12_WDATA'.
# ** Warning: (vsim-3722) C:/Users/Kpatel1/Desktop/Krupesh/microsemi/CoreAXI4Interconnect/trunk/sim/User_Test.v(1777): [TFMPC] - Missing connection for port 'MASTER12_WSTRB'.
# ** Warning: (vsim-3722) C:/Users/Kpatel1/Desktop/Krupesh/microsemi/CoreAXI4Interconnect/trunk/sim/User_Test.v(1777): [TFMPC] - Missing connection for port 'MASTER12_WLAST'.
# ** Warning: (vsim-3722) C:/Users/Kpatel1/Desktop/Krupesh/microsemi/CoreAXI4Interconnect/trunk/sim/User_Test.v(1777): [TFMPC] - Missing connection for port 'MASTER12_WUSER'.
# ** Warning: (vsim-3722) C:/Users/Kpatel1/Desktop/Krupesh/microsemi/CoreAXI4Interconnect/trunk/sim/User_Test.v(1777): [TFMPC] - Missing connection for port 'MASTER12_WVALID'.
# ** Warning: (vsim-3722) C:/Users/Kpatel1/Desktop/Krupesh/microsemi/CoreAXI4Interconnect/trunk/sim/User_Test.v(1777): [TFMPC] - Missing connection for port 'MASTER12_WREADY'.
# ** Warning: (vsim-3722) C:/Users/Kpatel1/Desktop/Krupesh/microsemi/CoreAXI4Interconnect/trunk/sim/User_Test.v(1777): [TFMPC] - Missing connection for port 'MASTER13_WID'.
# ** Warning: (vsim-3722) C:/Users/Kpatel1/Desktop/Krupesh/microsemi/CoreAXI4Interconnect/trunk/sim/User_Test.v(1777): [TFMPC] - Missing connection for port 'MASTER13_WDATA'.
# ** Warning: (vsim-3722) C:/Users/Kpatel1/Desktop/Krupesh/microsemi/CoreAXI4Interconnect/trunk/sim/User_Test.v(1777): [TFMPC] - Missing connection for port 'MASTER13_WSTRB'.
# ** Warning: (vsim-3722) C:/Users/Kpatel1/Desktop/Krupesh/microsemi/CoreAXI4Interconnect/trunk/sim/User_Test.v(1777): [TFMPC] - Missing connection for port 'MASTER13_WLAST'.
# ** Warning: (vsim-3722) C:/Users/Kpatel1/Desktop/Krupesh/microsemi/CoreAXI4Interconnect/trunk/sim/User_Test.v(1777): [TFMPC] - Missing connection for port 'MASTER13_WUSER'.
# ** Warning: (vsim-3722) C:/Users/Kpatel1/Desktop/Krupesh/microsemi/CoreAXI4Interconnect/trunk/sim/User_Test.v(1777): [TFMPC] - Missing connection for port 'MASTER13_WVALID'.
# ** Warning: (vsim-3722) C:/Users/Kpatel1/Desktop/Krupesh/microsemi/CoreAXI4Interconnect/trunk/sim/User_Test.v(1777): [TFMPC] - Missing connection for port 'MASTER13_WREADY'.
# ** Warning: (vsim-3722) C:/Users/Kpatel1/Desktop/Krupesh/microsemi/CoreAXI4Interconnect/trunk/sim/User_Test.v(1777): [TFMPC] - Missing connection for port 'MASTER14_WID'.
# ** Warning: (vsim-3722) C:/Users/Kpatel1/Desktop/Krupesh/microsemi/CoreAXI4Interconnect/trunk/sim/User_Test.v(1777): [TFMPC] - Missing connection for port 'MASTER14_WDATA'.
# ** Warning: (vsim-3722) C:/Users/Kpatel1/Desktop/Krupesh/microsemi/CoreAXI4Interconnect/trunk/sim/User_Test.v(1777): [TFMPC] - Missing connection for port 'MASTER14_WSTRB'.
# ** Warning: (vsim-3722) C:/Users/Kpatel1/Desktop/Krupesh/microsemi/CoreAXI4Interconnect/trunk/sim/User_Test.v(1777): [TFMPC] - Missing connection for port 'MASTER14_WLAST'.
# ** Warning: (vsim-3722) C:/Users/Kpatel1/Desktop/Krupesh/microsemi/CoreAXI4Interconnect/trunk/sim/User_Test.v(1777): [TFMPC] - Missing connection for port 'MASTER14_WUSER'.
# ** Warning: (vsim-3722) C:/Users/Kpatel1/Desktop/Krupesh/microsemi/CoreAXI4Interconnect/trunk/sim/User_Test.v(1777): [TFMPC] - Missing connection for port 'MASTER14_WVALID'.
# ** Warning: (vsim-3722) C:/Users/Kpatel1/Desktop/Krupesh/microsemi/CoreAXI4Interconnect/trunk/sim/User_Test.v(1777): [TFMPC] - Missing connection for port 'MASTER14_WREADY'.
# ** Warning: (vsim-3722) C:/Users/Kpatel1/Desktop/Krupesh/microsemi/CoreAXI4Interconnect/trunk/sim/User_Test.v(1777): [TFMPC] - Missing connection for port 'MASTER15_WID'.
# ** Warning: (vsim-3722) C:/Users/Kpatel1/Desktop/Krupesh/microsemi/CoreAXI4Interconnect/trunk/sim/User_Test.v(1777): [TFMPC] - Missing connection for port 'MASTER15_WDATA'.
# ** Warning: (vsim-3722) C:/Users/Kpatel1/Desktop/Krupesh/microsemi/CoreAXI4Interconnect/trunk/sim/User_Test.v(1777): [TFMPC] - Missing connection for port 'MASTER15_WSTRB'.
# ** Warning: (vsim-3722) C:/Users/Kpatel1/Desktop/Krupesh/microsemi/CoreAXI4Interconnect/trunk/sim/User_Test.v(1777): [TFMPC] - Missing connection for port 'MASTER15_WLAST'.
# ** Warning: (vsim-3722) C:/Users/Kpatel1/Desktop/Krupesh/microsemi/CoreAXI4Interconnect/trunk/sim/User_Test.v(1777): [TFMPC] - Missing connection for port 'MASTER15_WUSER'.
# ** Warning: (vsim-3722) C:/Users/Kpatel1/Desktop/Krupesh/microsemi/CoreAXI4Interconnect/trunk/sim/User_Test.v(1777): [TFMPC] - Missing connection for port 'MASTER15_WVALID'.
# ** Warning: (vsim-3722) C:/Users/Kpatel1/Desktop/Krupesh/microsemi/CoreAXI4Interconnect/trunk/sim/User_Test.v(1777): [TFMPC] - Missing connection for port 'MASTER15_WREADY'.
# ** Warning: (vsim-3722) C:/Users/Kpatel1/Desktop/Krupesh/microsemi/CoreAXI4Interconnect/trunk/sim/User_Test.v(1777): [TFMPC] - Missing connection for port 'MASTER8_BID'.
# ** Warning: (vsim-3722) C:/Users/Kpatel1/Desktop/Krupesh/microsemi/CoreAXI4Interconnect/trunk/sim/User_Test.v(1777): [TFMPC] - Missing connection for port 'MASTER8_BRESP'.
# ** Warning: (vsim-3722) C:/Users/Kpatel1/Desktop/Krupesh/microsemi/CoreAXI4Interconnect/trunk/sim/User_Test.v(1777): [TFMPC] - Missing connection for port 'MASTER8_BUSER'.
# ** Warning: (vsim-3722) C:/Users/Kpatel1/Desktop/Krupesh/microsemi/CoreAXI4Interconnect/trunk/sim/User_Test.v(1777): [TFMPC] - Missing connection for port 'MASTER8_BVALID'.
# ** Warning: (vsim-3722) C:/Users/Kpatel1/Desktop/Krupesh/microsemi/CoreAXI4Interconnect/trunk/sim/User_Test.v(1777): [TFMPC] - Missing connection for port 'MASTER8_BREADY'.
# ** Warning: (vsim-3722) C:/Users/Kpatel1/Desktop/Krupesh/microsemi/CoreAXI4Interconnect/trunk/sim/User_Test.v(1777): [TFMPC] - Missing connection for port 'MASTER9_BID'.
# ** Warning: (vsim-3722) C:/Users/Kpatel1/Desktop/Krupesh/microsemi/CoreAXI4Interconnect/trunk/sim/User_Test.v(1777): [TFMPC] - Missing connection for port 'MASTER9_BRESP'.
# ** Warning: (vsim-3722) C:/Users/Kpatel1/Desktop/Krupesh/microsemi/CoreAXI4Interconnect/trunk/sim/User_Test.v(1777): [TFMPC] - Missing connection for port 'MASTER9_BUSER'.
# ** Warning: (vsim-3722) C:/Users/Kpatel1/Desktop/Krupesh/microsemi/CoreAXI4Interconnect/trunk/sim/User_Test.v(1777): [TFMPC] - Missing connection for port 'MASTER9_BVALID'.
# ** Warning: (vsim-3722) C:/Users/Kpatel1/Desktop/Krupesh/microsemi/CoreAXI4Interconnect/trunk/sim/User_Test.v(1777): [TFMPC] - Missing connection for port 'MASTER9_BREADY'.
# ** Warning: (vsim-3722) C:/Users/Kpatel1/Desktop/Krupesh/microsemi/CoreAXI4Interconnect/trunk/sim/User_Test.v(1777): [TFMPC] - Missing connection for port 'MASTER10_BID'.
# ** Warning: (vsim-3722) C:/Users/Kpatel1/Desktop/Krupesh/microsemi/CoreAXI4Interconnect/trunk/sim/User_Test.v(1777): [TFMPC] - Missing connection for port 'MASTER10_BRESP'.
# ** Warning: (vsim-3722) C:/Users/Kpatel1/Desktop/Krupesh/microsemi/CoreAXI4Interconnect/trunk/sim/User_Test.v(1777): [TFMPC] - Missing connection for port 'MASTER10_BUSER'.
# ** Warning: (vsim-3722) C:/Users/Kpatel1/Desktop/Krupesh/microsemi/CoreAXI4Interconnect/trunk/sim/User_Test.v(1777): [TFMPC] - Missing connection for port 'MASTER10_BVALID'.
# ** Warning: (vsim-3722) C:/Users/Kpatel1/Desktop/Krupesh/microsemi/CoreAXI4Interconnect/trunk/sim/User_Test.v(1777): [TFMPC] - Missing connection for port 'MASTER10_BREADY'.
# ** Warning: (vsim-3722) C:/Users/Kpatel1/Desktop/Krupesh/microsemi/CoreAXI4Interconnect/trunk/sim/User_Test.v(1777): [TFMPC] - Missing connection for port 'MASTER11_BID'.
# ** Warning: (vsim-3722) C:/Users/Kpatel1/Desktop/Krupesh/microsemi/CoreAXI4Interconnect/trunk/sim/User_Test.v(1777): [TFMPC] - Missing connection for port 'MASTER11_BRESP'.
# ** Warning: (vsim-3722) C:/Users/Kpatel1/Desktop/Krupesh/microsemi/CoreAXI4Interconnect/trunk/sim/User_Test.v(1777): [TFMPC] - Missing connection for port 'MASTER11_BUSER'.
# ** Warning: (vsim-3722) C:/Users/Kpatel1/Desktop/Krupesh/microsemi/CoreAXI4Interconnect/trunk/sim/User_Test.v(1777): [TFMPC] - Missing connection for port 'MASTER11_BVALID'.
# ** Warning: (vsim-3722) C:/Users/Kpatel1/Desktop/Krupesh/microsemi/CoreAXI4Interconnect/trunk/sim/User_Test.v(1777): [TFMPC] - Missing connection for port 'MASTER11_BREADY'.
# ** Warning: (vsim-3722) C:/Users/Kpatel1/Desktop/Krupesh/microsemi/CoreAXI4Interconnect/trunk/sim/User_Test.v(1777): [TFMPC] - Missing connection for port 'MASTER12_BID'.
# ** Warning: (vsim-3722) C:/Users/Kpatel1/Desktop/Krupesh/microsemi/CoreAXI4Interconnect/trunk/sim/User_Test.v(1777): [TFMPC] - Missing connection for port 'MASTER12_BRESP'.
# ** Warning: (vsim-3722) C:/Users/Kpatel1/Desktop/Krupesh/microsemi/CoreAXI4Interconnect/trunk/sim/User_Test.v(1777): [TFMPC] - Missing connection for port 'MASTER12_BUSER'.
# ** Warning: (vsim-3722) C:/Users/Kpatel1/Desktop/Krupesh/microsemi/CoreAXI4Interconnect/trunk/sim/User_Test.v(1777): [TFMPC] - Missing connection for port 'MASTER12_BVALID'.
# ** Warning: (vsim-3722) C:/Users/Kpatel1/Desktop/Krupesh/microsemi/CoreAXI4Interconnect/trunk/sim/User_Test.v(1777): [TFMPC] - Missing connection for port 'MASTER12_BREADY'.
# ** Warning: (vsim-3722) C:/Users/Kpatel1/Desktop/Krupesh/microsemi/CoreAXI4Interconnect/trunk/sim/User_Test.v(1777): [TFMPC] - Missing connection for port 'MASTER13_BID'.
# ** Warning: (vsim-3722) C:/Users/Kpatel1/Desktop/Krupesh/microsemi/CoreAXI4Interconnect/trunk/sim/User_Test.v(1777): [TFMPC] - Missing connection for port 'MASTER13_BRESP'.
# ** Warning: (vsim-3722) C:/Users/Kpatel1/Desktop/Krupesh/microsemi/CoreAXI4Interconnect/trunk/sim/User_Test.v(1777): [TFMPC] - Missing connection for port 'MASTER13_BUSER'.
# ** Warning: (vsim-3722) C:/Users/Kpatel1/Desktop/Krupesh/microsemi/CoreAXI4Interconnect/trunk/sim/User_Test.v(1777): [TFMPC] - Missing connection for port 'MASTER13_BVALID'.
# ** Warning: (vsim-3722) C:/Users/Kpatel1/Desktop/Krupesh/microsemi/CoreAXI4Interconnect/trunk/sim/User_Test.v(1777): [TFMPC] - Missing connection for port 'MASTER13_BREADY'.
# ** Warning: (vsim-3722) C:/Users/Kpatel1/Desktop/Krupesh/microsemi/CoreAXI4Interconnect/trunk/sim/User_Test.v(1777): [TFMPC] - Missing connection for port 'MASTER14_BID'.
# ** Warning: (vsim-3722) C:/Users/Kpatel1/Desktop/Krupesh/microsemi/CoreAXI4Interconnect/trunk/sim/User_Test.v(1777): [TFMPC] - Missing connection for port 'MASTER14_BRESP'.
# ** Warning: (vsim-3722) C:/Users/Kpatel1/Desktop/Krupesh/microsemi/CoreAXI4Interconnect/trunk/sim/User_Test.v(1777): [TFMPC] - Missing connection for port 'MASTER14_BUSER'.
# ** Warning: (vsim-3722) C:/Users/Kpatel1/Desktop/Krupesh/microsemi/CoreAXI4Interconnect/trunk/sim/User_Test.v(1777): [TFMPC] - Missing connection for port 'MASTER14_BVALID'.
# ** Warning: (vsim-3722) C:/Users/Kpatel1/Desktop/Krupesh/microsemi/CoreAXI4Interconnect/trunk/sim/User_Test.v(1777): [TFMPC] - Missing connection for port 'MASTER14_BREADY'.
# ** Warning: (vsim-3722) C:/Users/Kpatel1/Desktop/Krupesh/microsemi/CoreAXI4Interconnect/trunk/sim/User_Test.v(1777): [TFMPC] - Missing connection for port 'MASTER15_BID'.
# ** Warning: (vsim-3722) C:/Users/Kpatel1/Desktop/Krupesh/microsemi/CoreAXI4Interconnect/trunk/sim/User_Test.v(1777): [TFMPC] - Missing connection for port 'MASTER15_BRESP'.
# ** Warning: (vsim-3722) C:/Users/Kpatel1/Desktop/Krupesh/microsemi/CoreAXI4Interconnect/trunk/sim/User_Test.v(1777): [TFMPC] - Missing connection for port 'MASTER15_BUSER'.
# ** Warning: (vsim-3722) C:/Users/Kpatel1/Desktop/Krupesh/microsemi/CoreAXI4Interconnect/trunk/sim/User_Test.v(1777): [TFMPC] - Missing connection for port 'MASTER15_BVALID'.
# ** Warning: (vsim-3722) C:/Users/Kpatel1/Desktop/Krupesh/microsemi/CoreAXI4Interconnect/trunk/sim/User_Test.v(1777): [TFMPC] - Missing connection for port 'MASTER15_BREADY'.
# ** Warning: (vsim-3722) C:/Users/Kpatel1/Desktop/Krupesh/microsemi/CoreAXI4Interconnect/trunk/sim/User_Test.v(1777): [TFMPC] - Missing connection for port 'MASTER8_ARID'.
# ** Warning: (vsim-3722) C:/Users/Kpatel1/Desktop/Krupesh/microsemi/CoreAXI4Interconnect/trunk/sim/User_Test.v(1777): [TFMPC] - Missing connection for port 'MASTER8_ARADDR'.
# ** Warning: (vsim-3722) C:/Users/Kpatel1/Desktop/Krupesh/microsemi/CoreAXI4Interconnect/trunk/sim/User_Test.v(1777): [TFMPC] - Missing connection for port 'MASTER8_ARLEN'.
# ** Warning: (vsim-3722) C:/Users/Kpatel1/Desktop/Krupesh/microsemi/CoreAXI4Interconnect/trunk/sim/User_Test.v(1777): [TFMPC] - Missing connection for port 'MASTER8_ARSIZE'.
# ** Warning: (vsim-3722) C:/Users/Kpatel1/Desktop/Krupesh/microsemi/CoreAXI4Interconnect/trunk/sim/User_Test.v(1777): [TFMPC] - Missing connection for port 'MASTER8_ARBURST'.
# ** Warning: (vsim-3722) C:/Users/Kpatel1/Desktop/Krupesh/microsemi/CoreAXI4Interconnect/trunk/sim/User_Test.v(1777): [TFMPC] - Missing connection for port 'MASTER8_ARLOCK'.
# ** Warning: (vsim-3722) C:/Users/Kpatel1/Desktop/Krupesh/microsemi/CoreAXI4Interconnect/trunk/sim/User_Test.v(1777): [TFMPC] - Missing connection for port 'MASTER8_ARCACHE'.
# ** Warning: (vsim-3722) C:/Users/Kpatel1/Desktop/Krupesh/microsemi/CoreAXI4Interconnect/trunk/sim/User_Test.v(1777): [TFMPC] - Missing connection for port 'MASTER8_ARPROT'.
# ** Warning: (vsim-3722) C:/Users/Kpatel1/Desktop/Krupesh/microsemi/CoreAXI4Interconnect/trunk/sim/User_Test.v(1777): [TFMPC] - Missing connection for port 'MASTER8_ARREGION'.
# ** Warning: (vsim-3722) C:/Users/Kpatel1/Desktop/Krupesh/microsemi/CoreAXI4Interconnect/trunk/sim/User_Test.v(1777): [TFMPC] - Missing connection for port 'MASTER8_ARQOS'.
# ** Warning: (vsim-3722) C:/Users/Kpatel1/Desktop/Krupesh/microsemi/CoreAXI4Interconnect/trunk/sim/User_Test.v(1777): [TFMPC] - Missing connection for port 'MASTER8_ARUSER'.
# ** Warning: (vsim-3722) C:/Users/Kpatel1/Desktop/Krupesh/microsemi/CoreAXI4Interconnect/trunk/sim/User_Test.v(1777): [TFMPC] - Missing connection for port 'MASTER8_ARVALID'.
# ** Warning: (vsim-3722) C:/Users/Kpatel1/Desktop/Krupesh/microsemi/CoreAXI4Interconnect/trunk/sim/User_Test.v(1777): [TFMPC] - Missing connection for port 'MASTER8_ARREADY'.
# ** Warning: (vsim-3722) C:/Users/Kpatel1/Desktop/Krupesh/microsemi/CoreAXI4Interconnect/trunk/sim/User_Test.v(1777): [TFMPC] - Missing connection for port 'MASTER9_ARID'.
# ** Warning: (vsim-3722) C:/Users/Kpatel1/Desktop/Krupesh/microsemi/CoreAXI4Interconnect/trunk/sim/User_Test.v(1777): [TFMPC] - Missing connection for port 'MASTER9_ARADDR'.
# ** Warning: (vsim-3722) C:/Users/Kpatel1/Desktop/Krupesh/microsemi/CoreAXI4Interconnect/trunk/sim/User_Test.v(1777): [TFMPC] - Missing connection for port 'MASTER9_ARLEN'.
# ** Warning: (vsim-3722) C:/Users/Kpatel1/Desktop/Krupesh/microsemi/CoreAXI4Interconnect/trunk/sim/User_Test.v(1777): [TFMPC] - Missing connection for port 'MASTER9_ARSIZE'.
# ** Warning: (vsim-3722) C:/Users/Kpatel1/Desktop/Krupesh/microsemi/CoreAXI4Interconnect/trunk/sim/User_Test.v(1777): [TFMPC] - Missing connection for port 'MASTER9_ARBURST'.
# ** Warning: (vsim-3722) C:/Users/Kpatel1/Desktop/Krupesh/microsemi/CoreAXI4Interconnect/trunk/sim/User_Test.v(1777): [TFMPC] - Missing connection for port 'MASTER9_ARLOCK'.
# ** Warning: (vsim-3722) C:/Users/Kpatel1/Desktop/Krupesh/microsemi/CoreAXI4Interconnect/trunk/sim/User_Test.v(1777): [TFMPC] - Missing connection for port 'MASTER9_ARCACHE'.
# ** Warning: (vsim-3722) C:/Users/Kpatel1/Desktop/Krupesh/microsemi/CoreAXI4Interconnect/trunk/sim/User_Test.v(1777): [TFMPC] - Missing connection for port 'MASTER9_ARPROT'.
# ** Warning: (vsim-3722) C:/Users/Kpatel1/Desktop/Krupesh/microsemi/CoreAXI4Interconnect/trunk/sim/User_Test.v(1777): [TFMPC] - Missing connection for port 'MASTER9_ARREGION'.
# ** Warning: (vsim-3722) C:/Users/Kpatel1/Desktop/Krupesh/microsemi/CoreAXI4Interconnect/trunk/sim/User_Test.v(1777): [TFMPC] - Missing connection for port 'MASTER9_ARQOS'.
# ** Warning: (vsim-3722) C:/Users/Kpatel1/Desktop/Krupesh/microsemi/CoreAXI4Interconnect/trunk/sim/User_Test.v(1777): [TFMPC] - Missing connection for port 'MASTER9_ARUSER'.
# ** Warning: (vsim-3722) C:/Users/Kpatel1/Desktop/Krupesh/microsemi/CoreAXI4Interconnect/trunk/sim/User_Test.v(1777): [TFMPC] - Missing connection for port 'MASTER9_ARVALID'.
# ** Warning: (vsim-3722) C:/Users/Kpatel1/Desktop/Krupesh/microsemi/CoreAXI4Interconnect/trunk/sim/User_Test.v(1777): [TFMPC] - Missing connection for port 'MASTER9_ARREADY'.
# ** Warning: (vsim-3722) C:/Users/Kpatel1/Desktop/Krupesh/microsemi/CoreAXI4Interconnect/trunk/sim/User_Test.v(1777): [TFMPC] - Missing connection for port 'MASTER10_ARID'.
# ** Warning: (vsim-3722) C:/Users/Kpatel1/Desktop/Krupesh/microsemi/CoreAXI4Interconnect/trunk/sim/User_Test.v(1777): [TFMPC] - Missing connection for port 'MASTER10_ARADDR'.
# ** Warning: (vsim-3722) C:/Users/Kpatel1/Desktop/Krupesh/microsemi/CoreAXI4Interconnect/trunk/sim/User_Test.v(1777): [TFMPC] - Missing connection for port 'MASTER10_ARLEN'.
# ** Warning: (vsim-3722) C:/Users/Kpatel1/Desktop/Krupesh/microsemi/CoreAXI4Interconnect/trunk/sim/User_Test.v(1777): [TFMPC] - Missing connection for port 'MASTER10_ARSIZE'.
# ** Warning: (vsim-3722) C:/Users/Kpatel1/Desktop/Krupesh/microsemi/CoreAXI4Interconnect/trunk/sim/User_Test.v(1777): [TFMPC] - Missing connection for port 'MASTER10_ARBURST'.
# ** Warning: (vsim-3722) C:/Users/Kpatel1/Desktop/Krupesh/microsemi/CoreAXI4Interconnect/trunk/sim/User_Test.v(1777): [TFMPC] - Missing connection for port 'MASTER10_ARLOCK'.
# ** Warning: (vsim-3722) C:/Users/Kpatel1/Desktop/Krupesh/microsemi/CoreAXI4Interconnect/trunk/sim/User_Test.v(1777): [TFMPC] - Missing connection for port 'MASTER10_ARCACHE'.
# ** Warning: (vsim-3722) C:/Users/Kpatel1/Desktop/Krupesh/microsemi/CoreAXI4Interconnect/trunk/sim/User_Test.v(1777): [TFMPC] - Missing connection for port 'MASTER10_ARPROT'.
# ** Warning: (vsim-3722) C:/Users/Kpatel1/Desktop/Krupesh/microsemi/CoreAXI4Interconnect/trunk/sim/User_Test.v(1777): [TFMPC] - Missing connection for port 'MASTER10_ARREGION'.
